hour, t(sec), S1 (kVA), Ang1, S2 (kVA), Ang2, S3 (kVA), Ang3, S4 (kVA), Ang4
0, 1800.00000, 10.1966, 19.3026, 11.6728, 13.1672, 11.9946, 22.1528, 0, 0
1, 0.00000, 8.69766, 18.2748, 9.24459, 16.2153, 9.26027, 20.146, 0, 0
1, 1800.00000, 8.88949, 20.6645, 6.51378, 27.3343, 7.23299, 6.92487, 0, 0
2, 0.00000, 8.6481, 21.4653, 5.94609, 29.0808, 6.88466, 4.64567, 0, 0
2, 1800.00000, 8.68326, 23.918, 5.64437, 27.4256, 7.29191, 4.12299, 0, 0
3, 0.00000, 8.79577, 24.3873, 5.2892, 30.3392, 7.12357, 1.34216, 0, 0
3, 1800.00000, 8.4112, 22.4759, 5.65113, 28.4301, 6.8477, 4.40203, 0, 0
4, 0.00000, 9.06656, 19.9093, 6.1276, 32.6957, 6.65611, 2.43037, 0, 0
4, 1800.00000, 12.3327, 21.1392, 7.60603, 35.725, 8.85051, -1.0974, 0, 0
5, 0.00000, 12.5405, 22.7301, 9.46939, 22.9668, 11.287, 9.19218, 0, 0
5, 1800.00000, 17.1489, 21.7841, 11.7736, 28.6341, 13.8104, 4.82281, 0, 0
6, 0.00000, 19.3074, 19.8955, 13.7156, 30.0791, 14.813, 4.95377, 0, 0
6, 1800.00000, 28.6346, 16.5384, 23.0786, 28.8101, 21.5461, 9.03723, 0, 0
7, 0.00000, 37.4124, 20.4019, 23.3103, 36.5002, 26.2391, -1.48757, 0, 0
7, 1800.00000, 37.4596, 23.1458, 22.4711, 33.1644, 28.7748, -0.0679023, 0, 0
8, 0.00000, 38.456, 25.1548, 23.5598, 30.0165, 31.6345, 2.85966, 0, 0
8, 1800.00000, 39.0899, 28.5536, 23.185, 28.123, 34.2616, 4.62268, 0, 0
9, 0.00000, 28.9688, 30.4758, 20.2282, 25.6631, 27.3935, 12.4026, 0, 0
9, 1800.00000, 12.2034, 51.9499, 7.71401, 30.3071, 13.4565, 26.48, 0, 0
10, 0.00000, 6.02576, 100.747, 3.49828, 38.3996, 8.4303, 61.2524, 0, 0
10, 1800.00000, 6.15146, 114.929, 3.83314, 102.498, 6.18766, 91.1138, 0, 0
11, 0.00000, 4.49226, 100.533, 5.67684, 101.731, 5.09811, 112.817, 0, 0
11, 1800.00000, 12.5762, 159.045, 9.79604, 163.944, 10.6349, 148.087, 0, 0
12, 0.00000, 15.358, 161.731, 11.9594, 171.343, 12.0248, 151.708, 0, 0
12, 1800.00000, 16.1114, 161.006, 10.6207, 177.598, 11.1198, 141.977, 0, 0
13, 0.00000, 11.7584, 134.139, 9.65952, 163.714, 5.97475, 129.065, 0, 0
13, 1800.00000, 13.566, 135.985, 11.1991, 173.26, 5.40464, 129.113, 0, 0
14, 0.00000, 10.8931, 134.213, 8.04161, 166.645, 5.29436, 118.841, 0, 0
14, 1800.00000, 6.43434, 138.975, 4.17266, 133.997, 6.00732, 117.968, 0, 0
15, 0.00000, 4.86729, 98.0575, 2.68708, 96.3827, 4.30103, 71.41, 0, 0
15, 1800.00000, 10.3999, 43.763, 7.31493, 32.0974, 10.6689, 24.3555, 0, 0
16, 0.00000, 18.1877, 35.4168, 10.1548, 27.9891, 17.0997, 8.66384, 0, 0
16, 1800.00000, 21.8213, 32.4848, 12.0612, 21.2285, 21.2837, 4.92746, 0, 0
17, 0.00000, 36.7114, 25.3475, 24.0881, 24.6197, 32.6377, 5.44028, 0, 0
17, 1800.00000, 42.6253, 23.4652, 35.1668, 18.6951, 42.1572, 12.452, 0, 0
18, 0.00000, 53.2488, 25.6345, 40.4211, 18.6461, 52.8252, 10.3947, 0, 0
18, 1800.00000, 50.1532, 26.0988, 41.8304, 15.184, 53.801, 13.3458, 0, 0
19, 0.00000, 50.6781, 24.0466, 35.9356, 23.6077, 45.4686, 7.50235, 0, 0
19, 1800.00000, 54.4956, 19.6178, 39.1359, 30.0449, 41.7279, 5.27917, 0, 0
20, 0.00000, 49.6398, 21.2165, 37.05, 25.6918, 41.9385, 8.01583, 0, 0
20, 1800.00000, 43.0711, 20.3192, 32.3329, 26.7754, 35.3303, 7.77857, 0, 0
21, 0.00000, 40.5158, 14.3833, 35.0445, 28.29, 30.0349, 11.7102, 0, 0
21, 1800.00000, 36.6889, 15.5506, 32.6071, 25.616, 29.5025, 13.3921, 0, 0
22, 0.00000, 29.1051, 20.8234, 23.9492, 22.2171, 26.3644, 11.6864, 0, 0
22, 1800.00000, 25.6576, 17.819, 21.2642, 25.8375, 20.9492, 10.9611, 0, 0
23, 0.00000, 22.8583, 20.7401, 16.3334, 28.3918, 18.2644, 5.85008, 0, 0
23, 1800.00000, 20.1922, 24.1717, 14.8628, 21.7887, 18.7258, 8.86842, 0, 0
24, 0.00000, 14.5402, 21.4232, 13.1829, 17.9963, 14.6199, 15.1726, 0, 0
24, 1800.00000, 12.4954, 22.4341, 11.7656, 15.6953, 13.3582, 16.442, 0, 0
25, 0.00000, 9.13697, 18.206, 9.37085, 17.3751, 9.37182, 19.0237, 0, 0
25, 1800.00000, 8.7438, 19.1548, 8.53238, 18.0361, 8.78569, 17.4068, 0, 0
26, 0.00000, 9.93648, 18.3461, 9.2146, 20.6846, 9.25745, 15.5977, 0, 0
26, 1800.00000, 8.53045, 21.5674, 6.1284, 26.8009, 7.07312, 6.62683, 0, 0
27, 0.00000, 8.55155, 22.5843, 5.59702, 29.5224, 6.85235, 3.35294, 0, 0
27, 1800.00000, 9.32601, 17.5781, 7.7426, 26.0635, 7.55467, 10.9397, 0, 0
28, 0.00000, 8.8722, 21.5976, 6.16622, 28.2972, 7.16771, 5.22041, 0, 0
28, 1800.00000, 11.6828, 18.0278, 7.91942, 36.0099, 7.86066, 0.465799, 0, 0
29, 0.00000, 11.5718, 18.9468, 7.84617, 34.2889, 8.14621, 1.58349, 0, 0
29, 1800.00000, 14.4136, 22.0689, 10.6624, 24.7542, 12.4721, 8.09747, 0, 0
30, 0.00000, 17.7332, 23.1195, 11.1642, 30.5077, 14.1039, 2.11348, 0, 0
30, 1800.00000, 22.9558, 20.9086, 15.3611, 31.4519, 17.4639, 2.89437, 0, 0
31, 0.00000, 32.4687, 24.7719, 17.14, 36.9264, 24.5503, -4.01479, 0, 0
31, 1800.00000, 30.6157, 30.0828, 18.0646, 19.9946, 29.8035, 4.8129, 0, 0
32, 0.00000, 32.3879, 26.1825, 24.5072, 19.1482, 32.1104, 10.8203, 0, 0
32, 1800.00000, 30.7112, 24.9945, 23.6522, 23.0147, 28.6518, 11.7836, 0, 0
33, 0.00000, 22.2339, 37.6915, 13.8216, 16.9885, 24.2161, 11.9427, 0, 0
33, 1800.00000, 14.8211, 35.0868, 10.527, 33.0841, 13.5683, 18.3262, 0, 0
34, 0.00000, 22.3118, 22.2945, 17.043, 38.5551, 15.4656, 11.9908, 0, 0
34, 1800.00000, 20.8737, 27.277, 13.773, 41.5071, 14.9897, 8.49419, 0, 0
35, 0.00000, 18.4579, 34.4718, 9.90923, 45.6873, 14.077, 6.46085, 0, 0
35, 1800.00000, 20.5136, 30.3494, 12.5015, 40.0342, 15.8099, 7.85645, 0, 0
36, 0.00000, 17.4265, 36.6433, 8.60492, 40.1182, 14.5802, 6.13636, 0, 0
36, 1800.00000, 21.0337, 29.9819, 12.2104, 38.8806, 16.4131, 5.3824, 0, 0
37, 0.00000, 20.3367, 26.8798, 15.9788, 27.2543, 18.4527, 15.227, 0, 0
37, 1800.00000, 17.1145, 26.5132, 15.5325, 23.3507, 17.1517, 20.4164, 0, 0
38, 0.00000, 19.963, 18.1712, 19.3585, 27.831, 16.7368, 21.1408, 0, 0
38, 1800.00000, 15.6851, 16.0193, 18.5113, 20.7801, 16.048, 27.3913, 0, 0
39, 0.00000, 16.1862, 18.7008, 15.9944, 24.6413, 14.6272, 21.0086, 0, 0
39, 1800.00000, 17.1642, 14.8563, 17.7118, 24.8173, 14.7603, 21.7799, 0, 0
40, 0.00000, 20.0664, 19.7247, 18.4056, 22.5916, 18.4575, 16.6245, 0, 0
40, 1800.00000, 25.647, 16.8989, 21.5346, 27.6131, 20.0365, 11.5086, 0, 0
41, 0.00000, 33.4266, 16.7788, 26.5822, 29.2381, 25.0088, 8.50533, 0, 0
41, 1800.00000, 50.347, 17.729, 41.4214, 26.3867, 40.6048, 10.6285, 0, 0
42, 0.00000, 54.2408, 21.4889, 43.9876, 22.0391, 49.5536, 11.3803, 0, 0
42, 1800.00000, 54.7443, 24.4385, 36.665, 25.311, 47.8326, 5.61498, 0, 0
43, 0.00000, 50.2226, 25.3558, 35.1867, 21.976, 46.7044, 7.70561, 0, 0
43, 1800.00000, 53.7327, 24.667, 37.7869, 22.9377, 48.9625, 7.50698, 0, 0
44, 0.00000, 43.3346, 22.3438, 35.1899, 20.8193, 40.7926, 11.6719, 0, 0
44, 1800.00000, 38.8799, 17.4243, 38.5472, 19.3113, 37.6087, 17.9295, 0, 0
45, 0.00000, 30.9534, 23.982, 29.2049, 14.0209, 34.5149, 16.5972, 0, 0
45, 1800.00000, 31.0975, 25.3598, 29.9035, 12.0658, 36.4151, 17.1749, 0, 0
46, 0.00000, 33.1769, 26.5123, 27.5625, 14.7043, 35.9136, 13.2942, 0, 0
46, 1800.00000, 33.741, 25.6906, 23.3855, 21.8242, 31.4902, 7.50896, 0, 0
47, 0.00000, 30.4403, 26.58, 16.0399, 32.5794, 24.726, -1.73898, 0, 0
47, 1800.00000, 19.7212, 28.0793, 12.3398, 21.627, 18.63, 5.46492, 0, 0
48, 0.00000, 19.2343, 29.8114, 11.5883, 19.8232, 18.7618, 5.27965, 0, 0
48, 1800.00000, 16.8889, 33.0902, 9.69383, 15.2522, 17.6192, 5.61029, 0, 0
49, 0.00000, 13.876, 25.4192, 8.95197, 25.1006, 12.2382, 4.8832, 0, 0
49, 1800.00000, 10.9052, 22.8013, 6.73217, 32.1655, 8.43653, 0.910367, 0, 0
50, 0.00000, 10.5643, 25.8059, 5.98218, 30.4659, 8.69292, 0.289599, 0, 0
50, 1800.00000, 10.1966, 29.5152, 4.97331, 29.2244, 8.85994, -1.30354, 0, 0
51, 0.00000, 8.9882, 28.7744, 4.8694, 26.0663, 8.02493, 1.40749, 0, 0
51, 1800.00000, 11.4028, 26.176, 6.3662, 30.462, 9.42549, 0.106475, 0, 0
52, 0.00000, 12.3577, 21.3742, 7.65426, 34.9748, 8.99548, -0.563257, 0, 0
52, 1800.00000, 11.6236, 25.5737, 6.40387, 32.5183, 9.3122, -1.0746, 0, 0
53, 0.00000, 10.4304, 18.3966, 8.88828, 23.9185, 8.94947, 12.3435, 0, 0
53, 1800.00000, 13.8702, 24.0332, 8.11175, 32.6221, 10.8607, -0.230855, 0, 0
54, 0.00000, 16.0564, 27.318, 10.5917, 20.8553, 15.3077, 6.68828, 0, 0
54, 1800.00000, 15.0265, 25.3789, 10.3979, 22.2607, 13.8832, 7.29694, 0, 0
55, 0.00000, 22.8814, 29.3546, 9.95137, 35.808, 18.7805, -5.4069, 0, 0
55, 1800.00000, 27.6273, 27.571, 14.342, 32.0916, 22.825, -1.23209, 0, 0
56, 0.00000, 32.8829, 31.6626, 17.2313, 26.617, 30.0325, 3.0033, 0, 0
56, 1800.00000, 29.9366, 37.8775, 13.9134, 22.2375, 29.7428, 4.79667, 0, 0
57, 0.00000, 18.1003, 45.2857, 7.31527, 46.2339, 15.6612, 8.89032, 0, 0
57, 1800.00000, 10.6003, 59.1167, 5.30382, 79.0365, 7.38318, 26.6664, 0, 0
58, 0.00000, 10.764, 91.7421, 5.39244, 143.101, 5.49699, 40.2044, 0, 0
58, 1800.00000, 8.77005, 117.91, 7.3293, 142.243, 5.11869, 114.508, 0, 0
59, 0.00000, 13.7527, 161.246, 10.4511, 169.499, 10.9689, 149.651, 0, 0
59, 1800.00000, 14.7589, 159.417, 11.2528, 169.805, 11.3645, 148.335, 0, 0
60, 0.00000, 13.2962, 150.676, 10.1631, 164.307, 9.67242, 140.15, 0, 0
60, 1800.00000, 12.7591, 162.66, 10.4219, 156.697, 12.7676, 150.851, 0, 0
61, 0.00000, 13.017, 156.701, 9.40673, 160.616, 11.0097, 141.831, 0, 0
61, 1800.00000, 12.5437, 162.138, 8.43063, 156.482, 11.8801, 142.402, 0, 0
62, 0.00000, 10.9655, 170.201, 7.7252, 149.239, 12.3781, 148.249, 0, 0
62, 1800.00000, 6.03866, 150.417, 6.47008, 129.237, 8.14495, 142.142, 0, 0
63, 0.00000, 3.82417, 95.3712, 5.28643, 92.2677, 4.92765, 108.475, 0, 0
63, 1800.00000, 9.45959, 35.4377, 8.2014, 60.5306, 5.43399, 35.2266, 0, 0
64, 0.00000, 10.8642, 25.399, 9.21269, 44.9809, 7.10932, 22.6036, 0, 0
64, 1800.00000, 19.6682, 33.0008, 10.8872, 24.6868, 18.6409, 5.86145, 0, 0
65, 0.00000, 28.1512, 30.6232, 15.329, 22.515, 26.5858, 2.95989, 0, 0
65, 1800.00000, 34.1678, 21.3948, 25.3456, 25.638, 28.9238, 7.85095, 0, 0
66, 0.00000, 36.6662, 21.434, 26.7807, 26.2532, 30.6919, 7.23031, 0, 0
66, 1800.00000, 33.3446, 19.4451, 27.8495, 23.3578, 29.1919, 11.8281, 0, 0
67, 0.00000, 39.0509, 20.3216, 28.7754, 27.5835, 31.5336, 6.95487, 0, 0
67, 1800.00000, 38.199, 22.6012, 25.6622, 28.2094, 31.2803, 4.48207, 0, 0
68, 0.00000, 38.4632, 22.758, 25.8656, 27.8813, 31.7169, 4.6392, 0, 0
68, 1800.00000, 36.0485, 21.8382, 25.4601, 27.1522, 29.8058, 6.07056, 0, 0
69, 0.00000, 32.2547, 21.8767, 23.1085, 26.4533, 27.0111, 6.69481, 0, 0
69, 1800.00000, 31.9342, 26.2013, 18.9517, 27.3884, 27.4536, 2.41589, 0, 0
70, 0.00000, 28.5914, 25.0609, 20.6152, 21.3, 26.871, 8.54815, 0, 0
70, 1800.00000, 28.9267, 21.305, 23.2692, 22.4502, 26.1264, 10.9892, 0, 0
71, 0.00000, 24.13, 18.4342, 21.3796, 22.309, 21.5529, 13.9035, 0, 0
71, 1800.00000, 18.0937, 23.6823, 14.1311, 20.3672, 17.2504, 10.7328, 0, 0
72, 0.00000, 18.2366, 19.6126, 13.7622, 27.6049, 14.6013, 7.61356, 0, 0
72, 1800.00000, 12.3437, 21.406, 9.48626, 24.1236, 10.7627, 9.28236, 0, 0
73, 0.00000, 11.5998, 23.3553, 8.01191, 25.6574, 9.97388, 6.12844, 0, 0
73, 1800.00000, 10.6545, 23.5423, 6.66678, 29.975, 8.58192, 2.23777, 0, 0
74, 0.00000, 13.3198, 25.1884, 7.338, 33.3399, 10.5177, -1.52312, 0, 0
74, 1800.00000, 12.9679, 25.9421, 6.9148, 33.4137, 10.3434, -2.00106, 0, 0
75, 0.00000, 10.5929, 23.8627, 6.28823, 32.1025, 8.32755, 0.252325, 0, 0
75, 1800.00000, 9.5113, 23.4122, 6.15148, 28.607, 7.80372, 3.52649, 0, 0
76, 0.00000, 11.7577, 27.8205, 6.62483, 26.358, 10.3821, 1.91945, 0, 0
76, 1800.00000, 12.3162, 27.8795, 7.04457, 25.5502, 10.9919, 2.46457, 0, 0
77, 0.00000, 9.61501, 22.0638, 6.48682, 28.9376, 7.72729, 4.26279, 0, 0
77, 1800.00000, 13.2287, 16.0606, 9.20135, 38.0109, 8.24834, -0.455754, 0, 0
78, 0.00000, 15.2913, 24.4748, 8.16863, 36.9557, 11.4897, -3.88045, 0, 0
78, 1800.00000, 19.0261, 25.2115, 9.74013, 37.7596, 14.3731, -4.81389, 0, 0
79, 0.00000, 24.0232, 29.8093, 10.473, 34.2094, 20.0831, -4.69589, 0, 0
79, 1800.00000, 24.8699, 28.3533, 12.1779, 32.0218, 20.7811, -2.4435, 0, 0
80, 0.00000, 29.4299, 28.5104, 14.5827, 33.2431, 24.3131, -1.94002, 0, 0
80, 1800.00000, 27.3037, 26.4672, 14.7996, 42.6782, 19.5466, -1.89045, 0, 0
81, 0.00000, 24.0376, 31.3229, 14.2386, 34.3161, 20.2094, 7.55806, 0, 0
81, 1800.00000, 23.3417, 30.8389, 16.8432, 29.0926, 21.3708, 14.8093, 0, 0
82, 0.00000, 19.7217, 31.5793, 14.7531, 41.4003, 15.3038, 19.3758, 0, 0
82, 1800.00000, 12.4671, 53.5474, 6.91126, 38.1355, 12.6427, 25.4682, 0, 0
83, 0.00000, 10.4625, 43.4059, 9.1122, 51.448, 8.66161, 39.3675, 0, 0
83, 1800.00000, 8.27955, 75.9271, 4.33085, 81.4758, 6.7547, 47.3589, 0, 0
84, 0.00000, 11.9004, 67.8442, 3.49799, 95.316, 9.15132, 19.6889, 0, 0
84, 1800.00000, 10.9593, 64.0747, 6.14104, 93.1967, 6.50737, 33.0493, 0, 0
85, 0.00000, 5.78043, 88.0077, 5.81651, 117.712, 3.03175, 103.507, 0, 0
85, 1800.00000, 6.13824, 111.91, 6.23222, 128.521, 4.57427, 121.302, 0, 0
86, 0.00000, 4.80688, 96.959, 6.2165, 96.9643, 5.64519, 109.458, 0, 0
86, 1800.00000, 6.68855, 44.8592, 7.46865, 58.5015, 5.61907, 59.0216, 0, 0
87, 0.00000, 10.0347, 31.053, 9.58192, 39.9761, 8.46814, 32.7527, 0, 0
87, 1800.00000, 16.4516, 29.4157, 12.6577, 28.6811, 15.0796, 16.4959, 0, 0
88, 0.00000, 16.9845, 28.7767, 15.0691, 18.0839, 18.6092, 18.5976, 0, 0
88, 1800.00000, 19.0234, 32.2865, 14.3078, 13.2063, 21.5307, 12.9904, 0, 0
89, 0.00000, 32.8535, 23.2571, 24.3053, 23.3099, 29.5209, 8.72637, 0, 0
89, 1800.00000, 42.9754, 19.7469, 31.2585, 29.2589, 33.4282, 5.99661, 0, 0
90, 0.00000, 38.6867, 20.4688, 31.7645, 22.8751, 34.4961, 11.5264, 0, 0
90, 1800.00000, 42.7192, 14.8531, 37.2863, 27.3036, 32.665, 12.3446, 0, 0
91, 0.00000, 43.2726, 16.3836, 36.283, 27.2073, 33.7402, 10.9457, 0, 0
91, 1800.00000, 38.8626, 19.2067, 27.4853, 31.4425, 28.8431, 4.16239, 0, 0
92, 0.00000, 36.1805, 20.4552, 27.3082, 26.2895, 29.9913, 8.08087, 0, 0
92, 1800.00000, 34.6423, 21.0632, 24.0041, 29.3724, 27.3297, 4.68371, 0, 0
93, 0.00000, 29.9303, 25.0264, 22.8862, 19.2541, 29.2938, 10.4579, 0, 0
93, 1800.00000, 31.9501, 24.256, 24.2777, 20.5529, 30.3952, 9.99131, 0, 0
94, 0.00000, 24.3559, 23.85, 20.1561, 18.1332, 24.4123, 12.6611, 0, 0
94, 1800.00000, 21.4415, 22.892, 14.9058, 26.2058, 18.1997, 6.10296, 0, 0
95, 0.00000, 17.5541, 25.7935, 11.0468, 25.5569, 15.4236, 4.2459, 0, 0
95, 1800.00000, 15.0526, 28.1506, 9.50235, 21.1634, 14.3242, 5.78, 0, 0
96, 0.00000, 11.7076, 24.6911, 9.52382, 17.594, 11.8749, 12.315, 0, 0
96, 1800.00000, 10.9092, 23.1896, 9.73907, 16.4806, 11.3952, 14.9064, 0, 0
97, 0.00000, 11.909, 30.9537, 5.71579, 26.34, 10.7808, -0.428088, 0, 0
97, 1800.00000, 9.93647, 30.3943, 5.01945, 25.4604, 9.03997, 0.589384, 0, 0
98, 0.00000, 8.84711, 22.6636, 5.7791, 29.4977, 7.09897, 3.33477, 0, 0
98, 1800.00000, 8.83222, 24.198, 5.5322, 28.6964, 7.30033, 2.85461, 0, 0
99, 0.00000, 11.7839, 29.0244, 5.97303, 28.5698, 10.2572, -0.534919, 0, 0
99, 1800.00000, 10.4452, 25.5711, 5.88016, 31.3209, 8.48325, -0.187528, 0, 0
100, 0.00000, 10.7616, 21.2991, 6.90754, 33.0534, 8.03561, 1.20599, 0, 0
100, 1800.00000, 10.7809, 25.8159, 6.38072, 28.2326, 9.12402, 2.00552, 0, 0
101, 0.00000, 13.2787, 24.3144, 8.77682, 26.0446, 11.4397, 5.05821, 0, 0
101, 1800.00000, 11.0961, 19.9425, 8.65997, 25.5782, 9.28382, 9.25644, 0, 0
102, 0.00000, 14.0456, 15.3496, 10.9408, 32.3826, 9.6006, 6.35613, 0, 0
102, 1800.00000, 22.95, 28.8205, 11.25, 30.7595, 19.5132, -1.87916, 0, 0
103, 0.00000, 27.7517, 30.16, 11.4531, 36.4343, 22.9461, -6.10074, 0, 0
103, 1800.00000, 32.6322, 27.1737, 16.2788, 34.2615, 26.2877, -3.19693, 0, 0
104, 0.00000, 29.6918, 32.6904, 13.2438, 27.9356, 26.8913, -0.863001, 0, 0
104, 1800.00000, 28.5585, 33.6141, 13.5901, 27.9886, 26.1005, 1.91851, 0, 0
105, 0.00000, 21.3623, 31.0808, 16.0277, 21.4548, 21.7957, 14.6468, 0, 0
105, 1800.00000, 15.6511, 32.3147, 11.3247, 25.2189, 15.341, 15.1517, 0, 0
106, 0.00000, 12.9569, 39.7465, 7.39556, 26.7393, 12.9094, 12.9553, 0, 0
106, 1800.00000, 20.2287, 33.2011, 11.1854, 34.0187, 17.4034, 6.70712, 0, 0
107, 0.00000, 15.1116, 33.7626, 9.90256, 36.7357, 12.7933, 14.2635, 0, 0
107, 1800.00000, 9.20985, 50.9906, 5.18106, 51.4181, 7.95997, 25.1269, 0, 0
108, 0.00000, 8.6137, 56.9144, 5.06797, 51.6512, 7.96003, 32.2324, 0, 0
108, 1800.00000, 12.1324, 35.0762, 9.53543, 40.7869, 10.1547, 24.7687, 0, 0
109, 0.00000, 15.7032, 40.588, 7.45468, 59.2419, 11.2513, 6.5566, 0, 0
109, 1800.00000, 11.6212, 42.0034, 7.28425, 45.7917, 9.69626, 20.6405, 0, 0
110, 0.00000, 11.1831, 34.6676, 10.0571, 30.1571, 11.3759, 27.6036, 0, 0
110, 1800.00000, 10.127, 32.077, 11.1132, 24.8409, 11.7867, 32.453, 0, 0
111, 0.00000, 11.3453, 33.1951, 11.5627, 16.4223, 14.2235, 25.4841, 0, 0
111, 1800.00000, 20.9192, 31.2934, 14.0562, 21.5249, 20.7877, 10.6626, 0, 0
112, 0.00000, 26.2349, 29.8255, 15.5364, 24.8608, 24.1973, 5.39797, 0, 0
112, 1800.00000, 24.5796, 18.8786, 21.0464, 24.1655, 21.2082, 13.0101, 0, 0
113, 0.00000, 28.7805, 15.8924, 21.8321, 32.9731, 19.6329, 5.20497, 0, 0
113, 1800.00000, 39.5035, 19.1939, 31.8354, 25.2947, 33.0728, 10.3051, 0, 0
114, 0.00000, 46.0433, 20.7996, 32.4477, 29.0449, 36.426, 5.2669, 0, 0
114, 1800.00000, 43.6082, 22.7785, 31.7377, 24.4391, 38.1959, 7.82429, 0, 0
115, 0.00000, 42.175, 20.4337, 29.0352, 30.7524, 32.249, 3.86185, 0, 0
115, 1800.00000, 33.0709, 21.7301, 24.6458, 24.9455, 28.4491, 8.21222, 0, 0
116, 0.00000, 31.9857, 24.0409, 24.4049, 20.6737, 30.3277, 10.0449, 0, 0
116, 1800.00000, 36.4539, 22.2458, 24.4096, 28.9834, 29.3628, 4.06798, 0, 0
117, 0.00000, 33.6129, 20.4373, 26.9994, 23.6814, 29.4079, 10.6313, 0, 0
117, 1800.00000, 30.163, 20.7861, 20.6504, 30.4606, 23.2807, 3.89464, 0, 0
118, 0.00000, 24.0796, 19.6554, 18.8522, 25.8534, 19.9869, 9.25683, 0, 0
118, 1800.00000, 25.6333, 25.6397, 16.454, 24.9414, 22.7086, 4.83942, 0, 0
119, 0.00000, 22.2821, 24.6462, 13.9098, 28.06, 18.6844, 3.08438, 0, 0
119, 1800.00000, 16.3823, 22.9506, 14.6714, 16.6829, 17.0351, 14.9804, 0, 0
120, 0.00000, 14.2587, 28.416, 11.6064, 12.7583, 16.0016, 13.0445, 0, 0
120, 1800.00000, 12.3991, 29.5565, 10.9619, 9.40478, 15.079, 15.2799, 0, 0
121, 0.00000, 8.75381, 26.9009, 6.95449, 15.4316, 9.29029, 12.11, 0, 0
121, 1800.00000, 9.03032, 23.1416, 6.09239, 27.0919, 7.56592, 5.06085, 0, 0
122, 0.00000, 8.3831, 23.2384, 5.88075, 25.185, 7.26021, 6.66318, 0, 0
122, 1800.00000, 9.14838, 28.027, 5.2247, 25.3152, 8.1976, 2.52942, 0, 0
123, 0.00000, 8.20603, 25.8314, 5.22944, 24.8645, 7.28403, 4.71667, 0, 0
123, 1800.00000, 8.33666, 23.7453, 5.89024, 24.0724, 7.39095, 7.21409, 0, 0
124, 0.00000, 9.0156, 20.7514, 7.43482, 22.1853, 8.16468, 11.7418, 0, 0
124, 1800.00000, 9.30868, 24.0857, 5.85099, 28.7446, 7.67943, 2.90246, 0, 0
125, 0.00000, 9.92171, 18.1047, 8.18698, 25.6401, 8.15576, 10.8722, 0, 0
125, 1800.00000, 13.4529, 19.7458, 10.4459, 26.0856, 11.1189, 8.94517, 0, 0
126, 0.00000, 14.431, 22.7122, 10.4131, 24.8351, 12.5293, 7.46227, 0, 0
126, 1800.00000, 18.9633, 23.86, 13.8555, 22.6037, 17.2946, 8.49015, 0, 0
127, 0.00000, 27.926, 31.8725, 13.5363, 23.5337, 26.1775, 0.586567, 0, 0
127, 1800.00000, 27.3929, 29.8102, 15.2878, 22.6693, 25.6856, 3.06558, 0, 0
128, 0.00000, 23.6985, 27.457, 12.829, 29.6586, 20.0711, 0.211786, 0, 0
128, 1800.00000, 26.074, 29.8973, 14.1516, 26.2695, 23.5206, 2.51748, 0, 0
129, 0.00000, 24.8712, 28.656, 16.334, 23.5848, 23.3135, 8.10102, 0, 0
129, 1800.00000, 16.2936, 26.3528, 14.6874, 23.177, 16.2868, 19.9373, 0, 0
130, 0.00000, 10.6645, 43.7855, 9.08453, 23.3147, 12.8121, 28.1329, 0, 0
130, 1800.00000, 9.09267, 55.0949, 6.36951, 36.7062, 9.99649, 33.6969, 0, 0
131, 0.00000, 11.5812, 41.0993, 8.18645, 45.3868, 9.71448, 25.2319, 0, 0
131, 1800.00000, 12.5568, 31.1877, 9.25948, 42.8865, 9.42294, 18.4075, 0, 0
132, 0.00000, 6.42303, 68.0872, 3.74191, 82.5413, 4.64774, 43.1625, 0, 0
132, 1800.00000, 4.53686, 99.696, 3.34033, 72.1846, 5.5151, 76.9215, 0, 0
133, 0.00000, 5.21148, 100.072, 4.33684, 115.754, 3.69176, 95.2289, 0, 0
133, 1800.00000, 5.23579, 162.431, 4.65091, 108.2, 8.30711, 133.138, 0, 0
134, 0.00000, 2.32088, 114.612, 5.19596, 68.1872, 6.26081, 107.374, 0, 0
134, 1800.00000, 7.74233, 32.4801, 8.06834, 56.3894, 4.90915, 48.0696, 0, 0
135, 0.00000, 9.75026, 34.9986, 7.53953, 60.6447, 5.52854, 25.3569, 0, 0
135, 1800.00000, 17.0559, 22.8593, 13.1946, 42.3074, 11.0985, 13.5364, 0, 0
136, 0.00000, 19.604, 25.4582, 16.5629, 27.215, 17.8051, 17.7466, 0, 0
