hour, t(sec), S1 (kVA), Ang1, S2 (kVA), Ang2, S3 (kVA), Ang3, S4 (kVA), Ang4
0, 1800.00000, 10.1966, 19.3026, 11.6728, 13.1672, 11.9946, 22.1528, 0, 0
1, 0.00000, 8.69766, 18.2748, 9.24459, 16.2153, 9.26027, 20.146, 0, 0
1, 1800.00000, 8.88949, 20.6645, 6.51378, 27.3343, 7.23299, 6.92487, 0, 0
2, 0.00000, 8.6481, 21.4653, 5.94609, 29.0808, 6.88466, 4.64567, 0, 0
2, 1800.00000, 8.68326, 23.918, 5.64437, 27.4256, 7.29191, 4.12299, 0, 0
3, 0.00000, 8.79577, 24.3873, 5.2892, 30.3392, 7.12357, 1.34216, 0, 0
3, 1800.00000, 8.4112, 22.4759, 5.65113, 28.4301, 6.8477, 4.40203, 0, 0
4, 0.00000, 9.06656, 19.9093, 6.1276, 32.6957, 6.65611, 2.43037, 0, 0
4, 1800.00000, 12.3327, 21.1392, 7.60603, 35.725, 8.85051, -1.0974, 0, 0
5, 0.00000, 12.5405, 22.7301, 9.46939, 22.9668, 11.287, 9.19218, 0, 0
5, 1800.00000, 17.1489, 21.7841, 11.7736, 28.6341, 13.8104, 4.82281, 0, 0
6, 0.00000, 19.3074, 19.8955, 13.7156, 30.0791, 14.813, 4.95377, 0, 0
6, 1800.00000, 28.6346, 16.5384, 23.0786, 28.8101, 21.5461, 9.03723, 0, 0
7, 0.00000, 37.4124, 20.4019, 23.3103, 36.5002, 26.2391, -1.48757, 0, 0
7, 1800.00000, 37.4596, 23.1458, 22.4711, 33.1644, 28.7748, -0.0679023, 0, 0
8, 0.00000, 38.946, 24.1596, 24.3807, 30.0821, 31.6172, 2.84504, 0, 0
8, 1800.00000, 40.3414, 25.8282, 25.4158, 28.4642, 34.2105, 4.58614, 0, 0
9, 0.00000, 29.9656, 27.3306, 22.0992, 26.1632, 27.3578, 12.3838, 0, 0
9, 1800.00000, 12.2947, 51.1583, 7.85689, 30.3177, 13.4963, 26.2163, 0, 0
10, 0.00000, 6.45209, 58.6855, 6.47304, 34.6891, 8.64679, 46.7849, 0, 0
10, 1800.00000, 5.65347, 80.6589, 4.84616, 79.0283, 5.42311, 72.4943, 0, 0
11, 0.00000, 4.49181, 100.534, 5.63016, 101.19, 5.10766, 112.033, 0, 0
11, 1800.00000, 12.552, 159.068, 7.76236, 167.59, 9.8169, 137.253, 0, 0
12, 0.00000, 15.3122, 161.749, 9.01728, 178.678, 10.6742, 136.934, 0, 0
12, 1800.00000, 15.2783, 161.568, 5.30297, -157.671, 10.4146, 111.177, 0, 0
13, 0.00000, 10.8872, 127.39, 3.09219, -176.812, 7.80735, 69.0179, 0, 0
13, 1800.00000, 11.2087, 122.754, 3.20428, -155.991, 8.30592, 54.6791, 0, 0
14, 0.00000, 8.72962, 116.555, 2.35351, 161.421, 6.48762, 61.9628, 0, 0
14, 1800.00000, 5.19236, 86.2722, 4.89703, 6.77319, 9.46345, 45.893, 0, 0
15, 0.00000, 7.58078, 66.1581, 7.94912, -13.4566, 14.5705, 26.8274, 0, 0
15, 1800.00000, 14.3891, 29.8969, 17.0001, 2.2921, 21.7984, 21.0314, 0, 0
16, 0.00000, 23.7195, 24.7705, 18.6797, 12.4649, 25.3469, 9.34812, 0, 0
16, 1800.00000, 33.9338, 24.4267, 23.9689, 5.72353, 37.5313, 3.16847, 0, 0
17, 0.00000, 53.3935, 20.1853, 37.2934, 15.0728, 50.7103, 2.04281, 0, 0
17, 1800.00000, 57.7589, 19.7395, 44.8086, 16.3978, 55.0184, 6.46156, 0, 0
18, 0.00000, 67.2618, 23.0381, 51.3598, 13.3342, 69.0896, 7.21509, 0, 0
18, 1800.00000, 67.833, 22.9175, 52.6836, 12.4001, 70.7142, 7.49959, 0, 0
19, 0.00000, 70.0249, 18.5354, 49.5904, 20.8636, 60.5116, 2.43231, 0, 0
19, 1800.00000, 73.8768, 14.4354, 53.4555, 26.914, 54.7333, 0.688766, 0, 0
20, 0.00000, 63.1775, 16.1124, 48.6973, 22.7663, 51.9388, 4.99155, 0, 0
20, 1800.00000, 53.5523, 16.2023, 40.0064, 25.3813, 42.0318, 3.85003, 0, 0
21, 0.00000, 47.7169, 12.0957, 39.4567, 28.8098, 33.1017, 7.0713, 0, 0
21, 1800.00000, 44.7377, 13.2926, 36.9484, 26.4642, 33.2758, 7.49003, 0, 0
22, 0.00000, 38.9665, 17.8259, 28.1586, 23.7643, 32.023, 3.27456, 0, 0
22, 1800.00000, 32.9595, 13.9065, 25.6031, 26.8661, 24.3479, 4.30537, 0, 0
23, 0.00000, 28.094, 14.6069, 20.7181, 29.0276, 20.1118, 2.05241, 0, 0
23, 1800.00000, 25.2592, 16.7205, 19.1722, 23.9189, 20.5079, 4.89212, 0, 0
24, 0.00000, 19.7207, 12.5593, 17.4374, 21.1915, 16.2407, 9.60252, 0, 0
24, 1800.00000, 17.0762, 13.9729, 15.2311, 19.1835, 14.9584, 10.2918, 0, 0
25, 0.00000, 11.9692, 16.789, 10.3615, 18.6611, 10.9402, 10.3423, 0, 0
25, 1800.00000, 10.8971, 21.4561, 8.51492, 18.0364, 10.4043, 8.50463, 0, 0
26, 0.00000, 12.0877, 20.5767, 9.19583, 20.6941, 10.917, 7.35577, 0, 0
26, 1800.00000, 10.7011, 23.4041, 6.11645, 26.836, 8.93661, -1.75418, 0, 0
27, 0.00000, 10.7288, 24.2078, 5.58656, 29.5679, 8.7755, -4.506, 0, 0
27, 1800.00000, 11.4698, 20.0478, 7.72721, 26.0958, 9.32824, 2.11107, 0, 0
28, 0.00000, 11.0446, 23.3743, 6.15434, 28.3378, 9.05669, -2.77415, 0, 0
28, 1800.00000, 13.8415, 20.0187, 7.90717, 36.0714, 9.83002, -6.01869, 0, 0
29, 0.00000, 11.6161, 18.9945, 7.8456, 34.2889, 8.18546, 1.41925, 0, 0
29, 1800.00000, 14.4136, 22.0689, 10.6624, 24.7542, 12.4721, 8.09746, 0, 0
30, 0.00000, 17.7332, 23.1195, 11.1642, 30.5077, 14.1039, 2.11348, 0, 0
30, 1800.00000, 22.9558, 20.9086, 15.3611, 31.4519, 17.4639, 2.89437, 0, 0
31, 0.00000, 32.4687, 24.7719, 17.14, 36.9264, 24.5503, -4.01479, 0, 0
31, 1800.00000, 30.6157, 30.0828, 18.0646, 19.9946, 29.8035, 4.8129, 0, 0
32, 0.00000, 32.336, 26.2095, 25.5866, 16.4474, 33.5937, 11.8033, 0, 0
32, 1800.00000, 30.6339, 25.0236, 25.101, 18.8622, 30.781, 13.2519, 0, 0
33, 0.00000, 22.1844, 37.7559, 15.4383, 10.9275, 26.3194, 13.5653, 0, 0
33, 1800.00000, 14.7859, 35.1004, 11.7075, 23.4225, 15.7126, 20.1038, 0, 0
34, 0.00000, 22.2656, 22.2851, 17.8157, 32.9924, 17.2068, 14.0403, 0, 0
34, 1800.00000, 21.3253, 27.3604, 13.7682, 41.5186, 15.3507, 7.45042, 0, 0
35, 0.00000, 20.7774, 34.1131, 9.89135, 45.7493, 16.0288, 1.59234, 0, 0
35, 1800.00000, 22.8698, 30.2961, 12.549, 40.0382, 17.7233, 3.30495, 0, 0
36, 0.00000, 21.3866, 27.6872, 11.9276, 37.6405, 16.5077, 1.34566, 0, 0
36, 1800.00000, 22.7094, 24.586, 14.6573, 37.6011, 16.6399, 4.72271, 0, 0
37, 0.00000, 20.4909, 26.1159, 17.205, 22.9797, 19.9356, 16.46, 0, 0
37, 1800.00000, 18.3165, 26.7899, 16.209, 20.269, 19.0183, 18.1986, 0, 0
38, 0.00000, 23.0741, 19.8797, 19.3795, 27.6608, 18.9842, 13.7041, 0, 0
38, 1800.00000, 16.2797, 16.567, 20.0725, 15.7176, 18.6919, 26.2268, 0, 0
39, 0.00000, 16.1386, 18.6846, 17.5312, 18.1913, 17.001, 22.499, 0, 0
39, 1800.00000, 18.2075, 11.3516, 23.3866, 12.8439, 20.8149, 24.6485, 0, 0
40, 0.00000, 22.9333, 12.6037, 25.734, 14.4144, 23.7865, 19.4245, 0, 0
40, 1800.00000, 33.8489, 11.1821, 33.0352, 15.5112, 31.2442, 12.0371, 0, 0
41, 0.00000, 46.685, 11.9345, 41.2687, 16.9609, 40.9033, 7.70458, 0, 0
41, 1800.00000, 65.6216, 13.306, 56.9776, 19.6239, 55.948, 8.54636, 0, 0
42, 0.00000, 74.0684, 11.4908, 66.206, 20.5551, 60.8069, 9.34902, 0, 0
42, 1800.00000, 71.2924, 16.7684, 51.8807, 23.7945, 57.7294, 2.72764, 0, 0
43, 0.00000, 65.0835, 18.4072, 49.4037, 19.2051, 58.2485, 5.22292, 0, 0
43, 1800.00000, 67.4256, 18.239, 54.0957, 17.1754, 62.8585, 7.13771, 0, 0
44, 0.00000, 58.0922, 14.6897, 49.1966, 19.5631, 50.3156, 8.10243, 0, 0
44, 1800.00000, 52.3253, 9.35889, 52.5806, 19.0522, 44.608, 14.5486, 0, 0
45, 0.00000, 43.3025, 12.5898, 43.3905, 14.5125, 42.0831, 13.663, 0, 0
45, 1800.00000, 44.8935, 15.0456, 44.3746, 11.7957, 46.8075, 12.8672, 0, 0
46, 0.00000, 47.4486, 17.4788, 41.9111, 12.263, 48.3939, 9.30821, 0, 0
46, 1800.00000, 43.549, 21.7707, 31.4192, 15.577, 42.2128, 4.69212, 0, 0
47, 0.00000, 36.5022, 24.3563, 20.5957, 21.8789, 32.6235, -1.58389, 0, 0
47, 1800.00000, 25.5372, 24.4888, 17.4619, 11.6682, 26.3487, 3.75878, 0, 0
48, 0.00000, 22.7285, 25.1232, 16.7931, 10.1122, 24.5249, 6.51386, 0, 0
48, 1800.00000, 20.3078, 27.3106, 13.3588, 11.3008, 21.4478, 4.47848, 0, 0
49, 0.00000, 16.6806, 21.0782, 11.7523, 18.9513, 15.272, 3.94947, 0, 0
49, 1800.00000, 10.9052, 22.8013, 6.73218, 32.1657, 8.43655, 0.910165, 0, 0
50, 0.00000, 10.5643, 25.8059, 5.98218, 30.4659, 8.69292, 0.289599, 0, 0
50, 1800.00000, 10.1966, 29.5152, 4.97331, 29.2244, 8.85994, -1.30354, 0, 0
51, 0.00000, 8.9882, 28.7744, 4.8694, 26.0663, 8.02493, 1.40749, 0, 0
51, 1800.00000, 11.4028, 26.176, 6.3662, 30.462, 9.42549, 0.106475, 0, 0
52, 0.00000, 12.3577, 21.3742, 7.65426, 34.9748, 8.99548, -0.563257, 0, 0
52, 1800.00000, 11.6228, 25.5748, 6.43715, 31.9516, 9.37321, -0.845627, 0, 0
53, 0.00000, 10.4074, 18.4079, 10.3485, 14.0141, 11.0592, 15.9491, 0, 0
53, 1800.00000, 13.8601, 24.0461, 8.44813, 28.4741, 11.454, 1.53152, 0, 0
54, 0.00000, 16.0564, 27.318, 10.5917, 20.8552, 15.3077, 6.68845, 0, 0
54, 1800.00000, 15.0265, 25.3789, 10.3979, 22.2607, 13.8832, 7.29694, 0, 0
55, 0.00000, 22.8814, 29.3546, 9.95137, 35.808, 18.7805, -5.4069, 0, 0
55, 1800.00000, 27.6273, 27.571, 14.342, 32.0916, 22.825, -1.23209, 0, 0
56, 0.00000, 32.8829, 31.6626, 17.2313, 26.617, 30.0325, 3.0033, 0, 0
56, 1800.00000, 29.9366, 37.8775, 13.9134, 22.2375, 29.7428, 4.79667, 0, 0
57, 0.00000, 18.1003, 45.2857, 7.31527, 46.2339, 15.6612, 8.89032, 0, 0
57, 1800.00000, 10.6003, 59.1167, 5.30382, 79.0365, 7.38318, 26.6664, 0, 0
58, 0.00000, 10.764, 91.7421, 5.39244, 143.101, 5.49699, 40.2044, 0, 0
58, 1800.00000, 8.77005, 117.91, 7.3293, 142.243, 5.11869, 114.508, 0, 0
59, 0.00000, 13.7527, 161.246, 10.4511, 169.499, 10.9689, 149.651, 0, 0
59, 1800.00000, 14.7589, 159.417, 11.2528, 169.805, 11.3645, 148.335, 0, 0
60, 0.00000, 13.2962, 150.676, 10.1631, 164.307, 9.67242, 140.15, 0, 0
60, 1800.00000, 12.7591, 162.66, 10.4219, 156.697, 12.7676, 150.851, 0, 0
61, 0.00000, 13.017, 156.701, 9.40673, 160.616, 11.0097, 141.831, 0, 0
61, 1800.00000, 12.5437, 162.138, 8.43063, 156.482, 11.8801, 142.402, 0, 0
62, 0.00000, 10.3983, 167.602, 7.71927, 149.239, 11.6302, 148.147, 0, 0
62, 1800.00000, 5.67985, 143.636, 6.40108, 129.003, 7.34608, 140.806, 0, 0
63, 0.00000, 5.08628, 73.0487, 4.52509, 68.5333, 5.15163, 65.5024, 0, 0
63, 1800.00000, 9.87728, 35.2136, 8.46617, 45.766, 7.78011, 31.0055, 0, 0
64, 0.00000, 10.8358, 25.3823, 10.0105, 32.8499, 9.25636, 24.5322, 0, 0
64, 1800.00000, 19.6256, 33.0562, 12.2939, 16.2762, 20.6452, 8.46656, 0, 0
65, 0.00000, 28.0907, 30.6765, 16.7642, 16.4951, 28.5371, 5.07369, 0, 0
65, 1800.00000, 34.3577, 20.8124, 27.726, 20.345, 31.798, 10.1756, 0, 0
66, 0.00000, 38.1147, 18.6651, 30.9415, 22.0161, 33.3902, 9.42456, 0, 0
66, 1800.00000, 35.869, 14.9013, 32.9688, 21.1436, 31.2425, 13.2814, 0, 0
67, 0.00000, 41.778, 15.9917, 34.1426, 24.8922, 33.4921, 8.57172, 0, 0
67, 1800.00000, 39.651, 20.0262, 29.1671, 24.7628, 33.2737, 6.15825, 0, 0
68, 0.00000, 42.2069, 20.8883, 29.3455, 24.4293, 35.7319, 4.13021, 0, 0
68, 1800.00000, 39.7206, 19.9419, 30.2879, 20.4522, 35.714, 6.91019, 0, 0
69, 0.00000, 34.4365, 19.1866, 26.632, 22.8803, 29.6458, 7.59313, 0, 0
69, 1800.00000, 33.1886, 23.0194, 22.4417, 23.0218, 29.3549, 4.4967, 0, 0
70, 0.00000, 31.1071, 22.013, 24.2314, 18.0729, 29.889, 8.7606, 0, 0
70, 1800.00000, 32.618, 19.0511, 26.8422, 19.3947, 30.0112, 9.59471, 0, 0
71, 0.00000, 27.8587, 16.1086, 24.0825, 21.475, 24.0816, 10.7819, 0, 0
71, 1800.00000, 21.7136, 19.8196, 16.2567, 21.8132, 19.0277, 6.27427, 0, 0
72, 0.00000, 20.5265, 15.3959, 15.9449, 28.0848, 15.2326, 5.7485, 0, 0
72, 1800.00000, 13.8247, 14.3239, 11.6561, 25.3548, 10.7466, 9.26093, 0, 0
73, 0.00000, 11.6861, 22.7942, 8.15387, 25.7437, 9.9729, 6.12649, 0, 0
73, 1800.00000, 10.6545, 23.542, 6.66682, 29.9751, 8.58187, 2.23768, 0, 0
74, 0.00000, 13.3198, 25.1884, 7.338, 33.3399, 10.5177, -1.52312, 0, 0
74, 1800.00000, 12.9679, 25.9421, 6.9148, 33.4137, 10.3434, -2.00106, 0, 0
75, 0.00000, 10.5929, 23.8627, 6.28823, 32.1025, 8.32755, 0.252325, 0, 0
75, 1800.00000, 9.5113, 23.4122, 6.15148, 28.607, 7.80372, 3.52649, 0, 0
76, 0.00000, 11.7577, 27.8205, 6.62483, 26.358, 10.3821, 1.91945, 0, 0
76, 1800.00000, 12.3162, 27.8795, 7.04457, 25.5502, 10.9919, 2.46457, 0, 0
77, 0.00000, 9.61501, 22.0638, 6.48682, 28.9376, 7.72729, 4.26279, 0, 0
77, 1800.00000, 13.2287, 16.0606, 9.20135, 38.0109, 8.24834, -0.455754, 0, 0
78, 0.00000, 15.2913, 24.4748, 8.16863, 36.9557, 11.4897, -3.88045, 0, 0
78, 1800.00000, 19.0261, 25.2115, 9.74013, 37.7596, 14.3731, -4.81389, 0, 0
79, 0.00000, 24.0232, 29.8093, 10.473, 34.2094, 20.0831, -4.69589, 0, 0
79, 1800.00000, 24.8699, 28.3533, 12.1779, 32.0218, 20.7811, -2.4435, 0, 0
80, 0.00000, 29.4299, 28.5104, 14.5827, 33.2431, 24.3131, -1.94002, 0, 0
80, 1800.00000, 27.3037, 26.4672, 14.7996, 42.6782, 19.5466, -1.89045, 0, 0
81, 0.00000, 24.0376, 31.3229, 14.2386, 34.3161, 20.2094, 7.55806, 0, 0
81, 1800.00000, 23.3417, 30.8389, 16.8432, 29.0926, 21.3708, 14.8093, 0, 0
82, 0.00000, 19.7217, 31.5793, 14.7531, 41.4003, 15.3038, 19.3758, 0, 0
82, 1800.00000, 12.5257, 51.5765, 7.338, 37.7051, 12.638, 25.4607, 0, 0
83, 0.00000, 11.1914, 33.8478, 10.9396, 47.8901, 8.64503, 39.3402, 0, 0
83, 1800.00000, 8.27955, 75.9269, 4.33087, 81.476, 6.75467, 47.3588, 0, 0
84, 0.00000, 11.7963, 60.5958, 4.34656, 77.2606, 9.13999, 19.6328, 0, 0
84, 1800.00000, 10.9886, 54.8912, 7.11277, 80.6384, 6.49488, 32.964, 0, 0
85, 0.00000, 5.78042, 88.0076, 5.81651, 117.712, 3.03172, 103.507, 0, 0
85, 1800.00000, 6.13789, 111.911, 6.16674, 128.28, 4.57329, 120.423, 0, 0
86, 0.00000, 4.80343, 96.9663, 5.92805, 93.0347, 5.76101, 104.539, 0, 0
86, 1800.00000, 6.67468, 44.8466, 7.66797, 47.1109, 6.97882, 53.1442, 0, 0
87, 0.00000, 10.4262, 27.1984, 11.3439, 28.8825, 10.6366, 32.3662, 0, 0
87, 1800.00000, 19.0974, 23.902, 16.0814, 22.2922, 18.2047, 14.9043, 0, 0
88, 0.00000, 19.2051, 18.9825, 21.4738, 12.8291, 22.2763, 20.7972, 0, 0
88, 1800.00000, 22.8463, 17.3651, 23.9615, 10.8316, 25.6878, 16.1695, 0, 0
89, 0.00000, 36.8409, 15.538, 33.3027, 18.634, 33.5751, 11.7679, 0, 0
89, 1800.00000, 47.8711, 13.3631, 39.5022, 26.909, 35.3498, 7.58831, 0, 0
90, 0.00000, 43.4934, 13.446, 39.5654, 22.6682, 35.8124, 12.3897, 0, 0
90, 1800.00000, 48.18, 8.93964, 44.3689, 28.1684, 32.4753, 12.3091, 0, 0
91, 0.00000, 48.9636, 10.0199, 43.8088, 28.158, 33.5327, 10.8921, 0, 0
91, 1800.00000, 42.5557, 13.9015, 32.7083, 31.5141, 28.759, 4.10201, 0, 0
92, 0.00000, 39.2612, 15.4136, 31.7776, 27.0532, 29.9182, 8.04768, 0, 0
92, 1800.00000, 37.7616, 15.8112, 28.4746, 29.7236, 27.332, 4.54479, 0, 0
93, 0.00000, 35.0683, 19.481, 27.2359, 21.2597, 31.0948, 7.63494, 0, 0
93, 1800.00000, 38.704, 16.5853, 30.8653, 23.077, 32.1171, 7.23347, 0, 0
94, 0.00000, 26.9329, 18.1549, 23.445, 20.0328, 24.6677, 11.9872, 0, 0
94, 1800.00000, 22.8685, 18.4667, 17.1114, 26.8442, 18.174, 6.07644, 0, 0
95, 0.00000, 17.5574, 25.7773, 11.0528, 25.5598, 15.4234, 4.24586, 0, 0
95, 1800.00000, 15.0526, 28.1506, 9.50235, 21.1634, 14.3242, 5.78, 0, 0
96, 0.00000, 11.7076, 24.6911, 9.52382, 17.594, 11.8749, 12.315, 0, 0
96, 1800.00000, 10.9092, 23.1896, 9.73907, 16.4806, 11.3952, 14.9064, 0, 0
97, 0.00000, 11.909, 30.9537, 5.71579, 26.34, 10.7808, -0.428088, 0, 0
97, 1800.00000, 9.93647, 30.3943, 5.01945, 25.4604, 9.03997, 0.589384, 0, 0
98, 0.00000, 8.84711, 22.6636, 5.7791, 29.4977, 7.09897, 3.33477, 0, 0
98, 1800.00000, 8.83222, 24.198, 5.5322, 28.6964, 7.30033, 2.85461, 0, 0
99, 0.00000, 11.7839, 29.0244, 5.97303, 28.5698, 10.2572, -0.534919, 0, 0
99, 1800.00000, 10.4452, 25.5711, 5.88016, 31.3209, 8.48325, -0.187528, 0, 0
100, 0.00000, 10.7616, 21.2991, 6.90754, 33.0534, 8.03561, 1.20599, 0, 0
100, 1800.00000, 10.7809, 25.8159, 6.38072, 28.2326, 9.12402, 2.00552, 0, 0
101, 0.00000, 13.2787, 24.3144, 8.77682, 26.0446, 11.4397, 5.05821, 0, 0
101, 1800.00000, 11.0961, 19.9425, 8.65997, 25.5782, 9.28382, 9.25644, 0, 0
102, 0.00000, 14.0456, 15.3496, 10.9408, 32.3826, 9.6006, 6.35613, 0, 0
102, 1800.00000, 22.95, 28.8205, 11.25, 30.7595, 19.5132, -1.87916, 0, 0
103, 0.00000, 27.7517, 30.16, 11.4531, 36.4343, 22.9461, -6.10074, 0, 0
103, 1800.00000, 32.6322, 27.1737, 16.2788, 34.2615, 26.2877, -3.19693, 0, 0
104, 0.00000, 29.6918, 32.6904, 13.2438, 27.9356, 26.8913, -0.863001, 0, 0
104, 1800.00000, 30.5546, 31.3861, 14.8334, 28.3987, 27.2674, 0.375045, 0, 0
105, 0.00000, 24.2999, 27.2031, 17.8524, 22.578, 23.1908, 11.2727, 0, 0
105, 1800.00000, 15.6513, 32.3146, 11.3246, 25.2195, 15.341, 15.1512, 0, 0
106, 0.00000, 12.9569, 39.7465, 7.39556, 26.7393, 12.9094, 12.9553, 0, 0
106, 1800.00000, 20.2287, 33.2011, 11.1854, 34.0187, 17.4034, 6.70712, 0, 0
107, 0.00000, 15.1116, 33.7626, 9.90256, 36.7357, 12.7933, 14.2635, 0, 0
107, 1800.00000, 9.20985, 50.9906, 5.18106, 51.4181, 7.95997, 25.1269, 0, 0
108, 0.00000, 8.84535, 46.6538, 6.55824, 46.6415, 7.95478, 32.2196, 0, 0
108, 1800.00000, 13.2652, 26.1168, 11.9479, 36.878, 10.5743, 24.9983, 0, 0
109, 0.00000, 16.6191, 40.0692, 7.77791, 43.2392, 13.9817, 7.81943, 0, 0
109, 1800.00000, 14.4213, 39.8284, 7.34791, 43.3777, 12.041, 10.3978, 0, 0
110, 0.00000, 11.9484, 34.1242, 10.1213, 30.1671, 11.7914, 24.5832, 0, 0
110, 1800.00000, 11.3353, 22.129, 14.4838, 19.6247, 13.6596, 32.2471, 0, 0
111, 0.00000, 12.2784, 31.487, 15.3648, 4.68964, 19.1161, 24.8085, 0, 0
111, 1800.00000, 23.3021, 30.4757, 17.6761, 10.0457, 26.8074, 10.9985, 0, 0
112, 0.00000, 29.5485, 26.5059, 20.4542, 15.2809, 30.0552, 6.60766, 0, 0
112, 1800.00000, 27.4964, 20.211, 24.4008, 14.5265, 28.2689, 12.0709, 0, 0
113, 0.00000, 37.1414, 12.6167, 33.8972, 14.8004, 34.4691, 8.98022, 0, 0
113, 1800.00000, 51.6327, 14.601, 44.839, 17.4533, 46.5567, 8.6556, 0, 0
114, 0.00000, 58.7404, 18.8912, 42.4332, 19.7941, 51.9432, 3.44224, 0, 0
114, 1800.00000, 53.9561, 19.8097, 42.7251, 15.4216, 52.4192, 7.12171, 0, 0
115, 0.00000, 53.3067, 14.6554, 42.8823, 20.2211, 45.0081, 5.53961, 0, 0
115, 1800.00000, 40.7004, 17.7162, 35.1619, 14.006, 40.3274, 9.13676, 0, 0
116, 0.00000, 37.85, 18.963, 31.7673, 16.4442, 36.513, 9.49251, 0, 0
116, 1800.00000, 45.502, 16.881, 31.8987, 26.5796, 35.175, 1.21303, 0, 0
117, 0.00000, 45.1392, 15.184, 35.2412, 22.7758, 36.6271, 4.93733, 0, 0
117, 1800.00000, 41.0258, 14.7147, 28.7927, 27.3743, 30.2284, -0.726257, 0, 0
118, 0.00000, 34.4602, 12.8029, 26.9201, 23.7493, 26.4115, 3.22302, 0, 0
118, 1800.00000, 37.1465, 17.7949, 24.606, 23.0227, 30.5448, -1.00586, 0, 0
119, 0.00000, 33.3722, 12.9292, 24.0414, 25.2736, 24.7417, -1.08678, 0, 0
119, 1800.00000, 25.6801, 9.76775, 23.4041, 19.1138, 21.1059, 8.8605, 0, 0
120, 0.00000, 19.3571, 17.0408, 15.9999, 17.9891, 17.6728, 7.99179, 0, 0
120, 1800.00000, 15.8721, 23.0109, 12.9762, 12.8838, 16.7435, 9.79099, 0, 0
121, 0.00000, 10.9016, 17.5867, 9.05821, 19.0213, 9.89585, 8.94869, 0, 0
121, 1800.00000, 9.13517, 22.2795, 6.26376, 27.1855, 7.56499, 5.05775, 0, 0
122, 0.00000, 8.38312, 23.2379, 5.88081, 25.1853, 7.26016, 6.66305, 0, 0
122, 1800.00000, 9.14838, 28.027, 5.2247, 25.3152, 8.1976, 2.52942, 0, 0
123, 0.00000, 8.20603, 25.8314, 5.22944, 24.8645, 7.28403, 4.71667, 0, 0
123, 1800.00000, 8.33666, 23.7453, 5.89024, 24.0724, 7.39095, 7.21409, 0, 0
124, 0.00000, 9.0156, 20.7514, 7.43482, 22.1853, 8.16468, 11.7418, 0, 0
124, 1800.00000, 9.30868, 24.0857, 5.85099, 28.7446, 7.67943, 2.90246, 0, 0
125, 0.00000, 9.92171, 18.1047, 8.18698, 25.6401, 8.15576, 10.8722, 0, 0
125, 1800.00000, 13.4529, 19.7458, 10.4459, 26.0856, 11.1189, 8.94517, 0, 0
126, 0.00000, 14.431, 22.7122, 10.4131, 24.8351, 12.5293, 7.46227, 0, 0
126, 1800.00000, 18.9633, 23.86, 13.8555, 22.6037, 17.2946, 8.49015, 0, 0
127, 0.00000, 27.926, 31.8725, 13.5363, 23.5337, 26.1775, 0.586567, 0, 0
127, 1800.00000, 27.3929, 29.8102, 15.2878, 22.6693, 25.6856, 3.06558, 0, 0
128, 0.00000, 23.6985, 27.457, 12.829, 29.6586, 20.0711, 0.211786, 0, 0
128, 1800.00000, 26.074, 29.8973, 14.1516, 26.2695, 23.5206, 2.51748, 0, 0
129, 0.00000, 24.8712, 28.656, 16.334, 23.5848, 23.3135, 8.10102, 0, 0
129, 1800.00000, 16.2682, 26.361, 15.6039, 18.9432, 17.6959, 20.8528, 0, 0
130, 0.00000, 10.6854, 43.4113, 9.15629, 23.3731, 12.8114, 28.1329, 0, 0
130, 1800.00000, 9.62532, 41.7353, 8.54807, 35.1855, 10.0115, 33.2919, 0, 0
131, 0.00000, 13.8772, 38.1344, 8.50095, 44.8566, 11.13, 15.8915, 0, 0
131, 1800.00000, 14.761, 31.1377, 9.26275, 42.5126, 11.0938, 9.9534, 0, 0
132, 0.00000, 8.02678, 59.7014, 3.52633, 48.2347, 7.67384, 25.5176, 0, 0
132, 1800.00000, 4.10149, 90.3808, 5.46994, 16.5601, 8.81813, 56.9561, 0, 0
133, 0.00000, 5.57344, 48.1412, 6.16176, 35.7222, 6.9479, 45.8481, 0, 0
133, 1800.00000, 0.716772, 37.5971, 7.51726, 36.143, 7.2018, 91.1499, 0, 0
134, 0.00000, 4.73981, 12.0761, 9.94901, 33.8243, 6.88392, 68.6209, 0, 0
134, 1800.00000, 13.7702, 9.58325, 14.8547, 33.1191, 9.01812, 27.9488, 0, 0
135, 0.00000, 15.1522, 15.2778, 13.6841, 33.932, 10.2768, 16.9409, 0, 0
135, 1800.00000, 23.5146, 11.8504, 20.0694, 32.9686, 14.8773, 9.82303, 0, 0
136, 0.00000, 28.8956, 17.0422, 25.9994, 17.1514, 27.5233, 11.8574, 0, 0
