hour, t(sec), S1 (kVA), Ang1, S2 (kVA), Ang2, S3 (kVA), Ang3, S4 (kVA), Ang4
0, 1800.00000, 10.1966, 19.3026, 11.6728, 13.1672, 11.9946, 22.1528, 0, 0
1, 0.00000, 8.69758, 18.2748, 9.25037, 16.1782, 9.26842, 20.1554, 0, 0
1, 1800.00000, 8.89643, 20.6722, 6.51375, 27.3344, 7.23864, 6.89146, 0, 0
2, 0.00000, 8.65247, 21.4292, 5.95306, 29.0822, 6.88465, 4.6456, 0, 0
2, 1800.00000, 8.68326, 23.918, 5.64437, 27.4256, 7.29191, 4.12299, 0, 0
3, 0.00000, 8.79577, 24.3873, 5.2892, 30.3392, 7.12357, 1.34216, 0, 0
3, 1800.00000, 8.4112, 22.4759, 5.65113, 28.4301, 6.8477, 4.40203, 0, 0
4, 0.00000, 9.06656, 19.9093, 6.1276, 32.6957, 6.65611, 2.43037, 0, 0
4, 1800.00000, 12.3327, 21.1392, 7.60603, 35.725, 8.85051, -1.0974, 0, 0
5, 0.00000, 12.5476, 22.7348, 9.46931, 22.9669, 11.2926, 9.16927, 0, 0
5, 1800.00000, 17.1488, 21.7841, 11.7773, 28.6048, 13.8167, 4.83563, 0, 0
6, 0.00000, 19.3074, 19.8955, 13.7156, 30.0791, 14.813, 4.95377, 0, 0
6, 1800.00000, 28.6398, 16.5275, 23.0898, 28.796, 21.5525, 9.04434, 0, 0
7, 0.00000, 37.421, 20.4029, 23.3114, 36.5002, 26.246, -1.49562, 0, 0
7, 1800.00000, 37.5753, 23.1081, 22.549, 33.0098, 28.9092, -0.0840687, 0, 0
8, 0.00000, 39.9033, 24.6091, 24.4931, 28.8079, 33.1117, 2.36582, 0, 0
8, 1800.00000, 42.8261, 26.8098, 25.7123, 25.5691, 37.9374, 3.2775, 0, 0
9, 0.00000, 36.3478, 25.2014, 25.6966, 21.7589, 33.8818, 7.92684, 0, 0
9, 1800.00000, 22.9201, 27.9398, 17.0648, 15.9179, 23.9872, 10.508, 0, 0
10, 0.00000, 16.4877, 25.9686, 15.0884, 12.6416, 18.8868, 15.8803, 0, 0
10, 1800.00000, 18.5661, 24.9315, 14.0937, 19.5497, 18.0418, 10.1786, 0, 0
11, 0.00000, 19.1755, 18.4808, 14.4296, 29.3777, 14.6236, 6.75425, 0, 0
11, 1800.00000, 16.6369, 24.8562, 10.8439, 25.5634, 14.5023, 4.87432, 0, 0
12, 0.00000, 15.7087, 28.7305, 9.59704, 21.1895, 14.9617, 5.08264, 0, 0
12, 1800.00000, 14.8152, 32.1394, 9.9552, 12.4386, 16.308, 9.03507, 0, 0
13, 0.00000, 21.4184, 30.5021, 11.3092, 23.2621, 19.9936, 1.93706, 0, 0
13, 1800.00000, 21.1738, 35.1781, 8.85491, 20.5751, 20.6827, -0.459431, 0, 0
14, 0.00000, 19.4463, 32.4118, 9.77262, 20.8024, 18.8189, 1.92469, 0, 0
14, 1800.00000, 15.0927, 24.8033, 11.3052, 20.2069, 14.4673, 9.70381, 0, 0
15, 0.00000, 14.3683, 27.278, 9.68835, 20.1655, 13.8615, 7.35954, 0, 0
15, 1800.00000, 18.6597, 27.0559, 13.3477, 18.5014, 18.5587, 9.07197, 0, 0
16, 0.00000, 22.9219, 29.3196, 13.8229, 20.6116, 22.0662, 5.02196, 0, 0
16, 1800.00000, 23.0434, 31.1569, 13.1047, 19.1356, 22.7353, 4.39165, 0, 0
17, 0.00000, 36.7933, 25.2622, 24.186, 24.5547, 32.7105, 5.43392, 0, 0
17, 1800.00000, 42.6253, 23.4652, 35.1668, 18.6951, 42.1572, 12.452, 0, 0
18, 0.00000, 53.2723, 25.6379, 40.4203, 18.6462, 52.8439, 10.3783, 0, 0
18, 1800.00000, 50.1532, 26.0988, 41.8304, 15.184, 53.801, 13.3457, 0, 0
19, 0.00000, 50.6856, 24.0479, 35.9354, 23.6077, 45.4748, 7.49659, 0, 0
19, 1800.00000, 54.5034, 19.6198, 39.1355, 30.0451, 41.7347, 5.27287, 0, 0
20, 0.00000, 49.6473, 21.2183, 37.0498, 25.6919, 41.9447, 8.00946, 0, 0
20, 1800.00000, 43.0719, 20.3179, 32.3342, 26.7756, 35.3303, 7.77855, 0, 0
21, 0.00000, 40.5158, 14.3833, 35.0445, 28.29, 30.0349, 11.7102, 0, 0
21, 1800.00000, 36.6889, 15.5506, 32.6071, 25.616, 29.5025, 13.3921, 0, 0
22, 0.00000, 29.1051, 20.8234, 23.9499, 22.2148, 26.3655, 11.6873, 0, 0
22, 1800.00000, 25.6586, 17.8197, 21.2683, 25.8215, 20.9569, 10.9658, 0, 0
23, 0.00000, 22.8583, 20.7401, 16.3334, 28.3918, 18.2644, 5.85008, 0, 0
23, 1800.00000, 20.1922, 24.1717, 14.8628, 21.7887, 18.7258, 8.86842, 0, 0
24, 0.00000, 14.5402, 21.4232, 13.1829, 17.9963, 14.6199, 15.1726, 0, 0
24, 1800.00000, 12.4954, 22.4341, 11.7656, 15.6953, 13.3582, 16.442, 0, 0
25, 0.00000, 9.13697, 18.206, 9.37085, 17.3751, 9.37182, 19.0237, 0, 0
25, 1800.00000, 8.7438, 19.1548, 8.53238, 18.0361, 8.78569, 17.4068, 0, 0
26, 0.00000, 9.93641, 18.3461, 9.2191, 20.6506, 9.26427, 15.6091, 0, 0
26, 1800.00000, 8.53045, 21.5674, 6.12841, 26.8009, 7.07312, 6.62683, 0, 0
27, 0.00000, 8.55155, 22.5843, 5.59702, 29.5224, 6.85235, 3.35294, 0, 0
27, 1800.00000, 9.32595, 17.5781, 7.74653, 26.0204, 7.56126, 10.9575, 0, 0
28, 0.00000, 8.8722, 21.5976, 6.16622, 28.2972, 7.16771, 5.22041, 0, 0
28, 1800.00000, 11.6828, 18.0278, 7.91942, 36.0099, 7.86066, 0.465799, 0, 0
29, 0.00000, 11.5718, 18.9468, 7.84617, 34.2889, 8.14621, 1.58349, 0, 0
29, 1800.00000, 14.4136, 22.0689, 10.6624, 24.7542, 12.4721, 8.09747, 0, 0
30, 0.00000, 17.7403, 23.1226, 11.1641, 30.5078, 14.11, 2.09824, 0, 0
30, 1800.00000, 22.9606, 20.8944, 15.3684, 31.452, 17.4637, 2.89417, 0, 0
31, 0.00000, 32.4687, 24.7719, 17.14, 36.9264, 24.5503, -4.01479, 0, 0
31, 1800.00000, 30.6498, 30.0575, 18.0896, 19.971, 29.8374, 4.797, 0, 0
32, 0.00000, 33.2804, 25.6155, 25.2381, 18.6657, 32.9817, 10.3665, 0, 0
32, 1800.00000, 33.704, 23.3685, 25.7725, 21.5498, 31.3186, 9.87927, 0, 0
33, 0.00000, 27.5239, 31.7713, 17.6648, 14.3561, 29.2997, 7.78809, 0, 0
33, 1800.00000, 23.279, 25.2392, 16.0248, 22.7658, 21.3159, 7.05685, 0, 0
34, 0.00000, 29.65, 18.6423, 21.5688, 30.8805, 22.0336, 5.15517, 0, 0
34, 1800.00000, 28.4617, 22.011, 18.4596, 31.0815, 22.1248, 2.42748, 0, 0
35, 0.00000, 26.6264, 26.2399, 14.9589, 29.8054, 22.2089, 0.400713, 0, 0
35, 1800.00000, 28.1514, 24.1566, 17.1762, 30.0316, 22.8432, 1.72393, 0, 0
36, 0.00000, 24.1587, 28.0476, 13.0845, 27.5559, 21.0755, 0.75986, 0, 0
36, 1800.00000, 27.3339, 24.5041, 16.1477, 30.9546, 22.0085, 0.702444, 0, 0
37, 0.00000, 26.2303, 22.3376, 19.8597, 23.3752, 23.363, 9.10429, 0, 0
37, 1800.00000, 22.7774, 21.8237, 19.3192, 19.7866, 21.8996, 13.0136, 0, 0
38, 0.00000, 25.3108, 15.8934, 22.7138, 24.7536, 20.8685, 13.8864, 0, 0
38, 1800.00000, 19.3368, 14.3446, 20.89, 19.2275, 18.6614, 21.0299, 0, 0
39, 0.00000, 19.4583, 16.3019, 18.375, 22.2396, 17.2246, 16.0647, 0, 0
39, 1800.00000, 19.6193, 13.636, 19.44, 23.1382, 16.6648, 17.8446, 0, 0
40, 0.00000, 21.7862, 18.6869, 19.6453, 21.3525, 19.9685, 14.6193, 0, 0
40, 1800.00000, 26.3662, 16.7056, 21.9848, 27.0492, 20.7005, 10.8058, 0, 0
41, 0.00000, 33.4293, 16.7741, 26.5866, 29.2363, 25.0098, 8.50626, 0, 0
41, 1800.00000, 50.347, 17.729, 41.4214, 26.3867, 40.6048, 10.6285, 0, 0
42, 0.00000, 54.2408, 21.4889, 43.9876, 22.0391, 49.5536, 11.3803, 0, 0
42, 1800.00000, 54.7443, 24.4385, 36.665, 25.311, 47.8326, 5.61498, 0, 0
43, 0.00000, 50.2347, 25.3494, 35.1942, 21.9787, 46.7101, 7.69992, 0, 0
43, 1800.00000, 53.7327, 24.667, 37.7869, 22.9377, 48.9625, 7.50698, 0, 0
44, 0.00000, 43.3422, 22.3457, 35.1896, 20.8193, 40.7986, 11.6647, 0, 0
44, 1800.00000, 38.8799, 17.4243, 38.5472, 19.3113, 37.6087, 17.9295, 0, 0
45, 0.00000, 30.9614, 23.982, 29.2059, 14.0216, 34.52, 16.5884, 0, 0
45, 1800.00000, 31.0975, 25.3598, 29.9035, 12.0658, 36.4151, 17.1749, 0, 0
46, 0.00000, 33.1769, 26.5123, 27.5625, 14.7043, 35.9136, 13.2942, 0, 0
46, 1800.00000, 33.7483, 25.6918, 23.3854, 21.8243, 31.4961, 7.50096, 0, 0
47, 0.00000, 30.4403, 26.58, 16.0399, 32.5794, 24.726, -1.73898, 0, 0
47, 1800.00000, 19.7212, 28.0793, 12.3398, 21.627, 18.63, 5.46492, 0, 0
48, 0.00000, 19.2343, 29.8114, 11.5883, 19.8232, 18.7618, 5.27965, 0, 0
48, 1800.00000, 16.8888, 33.0904, 9.69966, 15.2174, 17.6267, 5.62177, 0, 0
49, 0.00000, 13.876, 25.4192, 8.95197, 25.1006, 12.2382, 4.8832, 0, 0
49, 1800.00000, 10.9052, 22.8013, 6.73217, 32.1655, 8.43653, 0.910367, 0, 0
50, 0.00000, 10.5643, 25.8059, 5.98218, 30.4659, 8.69292, 0.289599, 0, 0
50, 1800.00000, 10.1966, 29.5152, 4.97331, 29.2244, 8.85994, -1.30354, 0, 0
51, 0.00000, 8.9882, 28.7744, 4.8694, 26.0663, 8.02493, 1.40749, 0, 0
51, 1800.00000, 11.4138, 26.149, 6.37325, 30.4624, 9.4315, 0.0851266, 0, 0
52, 0.00000, 12.3577, 21.3742, 7.65426, 34.9748, 8.99548, -0.563257, 0, 0
52, 1800.00000, 11.6307, 25.5767, 6.40383, 32.5185, 9.31846, -1.09562, 0, 0
53, 0.00000, 10.4374, 18.4049, 8.88822, 23.9185, 8.95475, 12.3129, 0, 0
53, 1800.00000, 13.8773, 24.0367, 8.1117, 32.6222, 10.8669, -0.249512, 0, 0
54, 0.00000, 16.0636, 27.3196, 10.5916, 20.8554, 15.3135, 6.67238, 0, 0
54, 1800.00000, 15.0265, 25.3789, 10.3979, 22.2607, 13.8832, 7.29694, 0, 0
55, 0.00000, 22.8814, 29.3546, 9.95137, 35.808, 18.7805, -5.4069, 0, 0
55, 1800.00000, 28.0757, 27.113, 14.7177, 31.4383, 23.238, -1.33099, 0, 0
56, 0.00000, 35.4847, 29.6309, 19.4019, 23.7485, 32.791, 2.31369, 0, 0
56, 1800.00000, 34.2582, 33.1707, 18.0821, 17.5146, 34.579, 3.58245, 0, 0
57, 0.00000, 28.0664, 30.6879, 14.5953, 23.4591, 26.1692, 1.6296, 0, 0
57, 1800.00000, 23.4246, 26.9859, 14.0607, 25.3208, 20.8413, 3.4223, 0, 0
58, 0.00000, 24.0358, 32.0092, 11.9959, 22.1528, 22.8867, 1.47661, 0, 0
58, 1800.00000, 23.0289, 27.0663, 13.2044, 27.157, 20.0091, 1.89509, 0, 0
59, 0.00000, 14.8661, 26.9999, 9.78107, 21.5065, 14.0062, 6.45154, 0, 0
59, 1800.00000, 16.7249, 27.8194, 10.5411, 21.6495, 15.7663, 5.5225, 0, 0
60, 0.00000, 19.8197, 27.691, 12.4775, 21.943, 18.5926, 5.41541, 0, 0
60, 1800.00000, 18.0762, 20.8603, 13.1488, 27.366, 14.7329, 6.72372, 0, 0
61, 0.00000, 18.5491, 24.998, 13.2283, 21.7648, 17.2703, 8.14976, 0, 0
61, 1800.00000, 17.3238, 22.2347, 13.6166, 22.0837, 15.8384, 10.4603, 0, 0
62, 0.00000, 14.978, 16.6562, 12.7455, 26.1767, 11.9964, 11.728, 0, 0
62, 1800.00000, 16.7793, 18.9606, 12.6122, 28.7578, 13.0331, 7.02306, 0, 0
63, 0.00000, 17.683, 20.3744, 13.0584, 27.4127, 14.3256, 7.08799, 0, 0
63, 1800.00000, 21.2002, 20.3128, 14.6633, 30.7173, 16.1813, 3.98599, 0, 0
64, 0.00000, 18.0759, 19.2627, 13.384, 28.9788, 14.0321, 6.49349, 0, 0
64, 1800.00000, 22.0916, 30.5637, 12.766, 19.7676, 21.5866, 4.50417, 0, 0
65, 0.00000, 28.4213, 30.4806, 15.5405, 21.9614, 26.9622, 2.90731, 0, 0
65, 1800.00000, 34.1678, 21.3949, 25.3456, 25.638, 28.9239, 7.85089, 0, 0
66, 0.00000, 36.6809, 21.4383, 26.7804, 26.2534, 30.7041, 7.2136, 0, 0
66, 1800.00000, 33.3446, 19.4451, 27.8495, 23.3578, 29.1919, 11.8281, 0, 0
67, 0.00000, 39.0509, 20.3216, 28.7754, 27.5835, 31.5336, 6.95487, 0, 0
67, 1800.00000, 38.199, 22.6012, 25.6622, 28.2094, 31.2803, 4.48207, 0, 0
68, 0.00000, 38.4629, 22.7581, 25.8695, 27.8678, 31.7232, 4.64512, 0, 0
68, 1800.00000, 36.0485, 21.8382, 25.4601, 27.1522, 29.8058, 6.07057, 0, 0
69, 0.00000, 32.2547, 21.8767, 23.1085, 26.4533, 27.0111, 6.69481, 0, 0
69, 1800.00000, 31.9385, 26.1902, 18.9591, 27.3903, 27.4534, 2.41569, 0, 0
70, 0.00000, 28.5914, 25.0609, 20.6152, 21.3, 26.871, 8.54815, 0, 0
70, 1800.00000, 28.9267, 21.305, 23.2692, 22.4502, 26.1264, 10.9892, 0, 0
71, 0.00000, 24.13, 18.4342, 21.3796, 22.309, 21.5529, 13.9035, 0, 0
71, 1800.00000, 18.098, 23.664, 14.1381, 20.3727, 17.2503, 10.7327, 0, 0
72, 0.00000, 18.2435, 19.617, 13.7665, 27.5758, 14.6145, 7.60937, 0, 0
72, 1800.00000, 12.3445, 21.4017, 9.48743, 24.1244, 10.7626, 9.28234, 0, 0
73, 0.00000, 11.5998, 23.3553, 8.01191, 25.6574, 9.97388, 6.12844, 0, 0
73, 1800.00000, 10.6545, 23.5423, 6.66678, 29.975, 8.58192, 2.23777, 0, 0
74, 0.00000, 13.3198, 25.1884, 7.338, 33.3399, 10.5177, -1.52312, 0, 0
74, 1800.00000, 12.9679, 25.9421, 6.9148, 33.4137, 10.3434, -2.00106, 0, 0
75, 0.00000, 10.5929, 23.8627, 6.28823, 32.1025, 8.32755, 0.252325, 0, 0
75, 1800.00000, 9.51836, 23.4176, 6.15144, 28.6072, 7.80969, 3.49776, 0, 0
76, 0.00000, 11.7649, 27.8223, 6.62478, 26.3581, 10.3883, 1.89855, 0, 0
76, 1800.00000, 12.3162, 27.8796, 7.04457, 25.5502, 10.9919, 2.46454, 0, 0
77, 0.00000, 9.61501, 22.0638, 6.48682, 28.9376, 7.72729, 4.26279, 0, 0
77, 1800.00000, 13.2287, 16.0606, 9.20135, 38.0109, 8.24834, -0.455754, 0, 0
78, 0.00000, 15.2912, 24.4749, 8.17135, 36.9106, 11.4954, -3.8608, 0, 0
78, 1800.00000, 19.0332, 25.2139, 9.74265, 37.722, 14.3854, -4.81004, 0, 0
79, 0.00000, 24.0232, 29.8093, 10.473, 34.2094, 20.0832, -4.69589, 0, 0
79, 1800.00000, 24.9359, 28.2646, 12.2324, 31.958, 20.8293, -2.47248, 0, 0
80, 0.00000, 30.3857, 27.8135, 15.2087, 32.0709, 25.216, -2.26735, 0, 0
80, 1800.00000, 31.4084, 24.2831, 17.1513, 35.9466, 23.79, -3.08523, 0, 0
81, 0.00000, 30.5761, 24.8677, 19.4724, 26.6371, 26.2367, 4.01196, 0, 0
81, 1800.00000, 31.6969, 22.9844, 23.4723, 23.3882, 28.3484, 8.57594, 0, 0
82, 0.00000, 32.8266, 21.2006, 23.3678, 27.8833, 26.617, 6.00028, 0, 0
82, 1800.00000, 24.2128, 28.2744, 16.4667, 18.3448, 24.1714, 8.04647, 0, 0
83, 0.00000, 24.1701, 19.3369, 19.8046, 24.3396, 20.6796, 11.0386, 0, 0
83, 1800.00000, 21.7358, 24.7423, 15.1911, 22.9787, 19.7777, 7.33623, 0, 0
84, 0.00000, 23.1877, 28.4906, 13.6409, 23.205, 21.444, 3.79001, 0, 0
84, 1800.00000, 25.4544, 24.4835, 16.8604, 25.6459, 22.1068, 5.24042, 0, 0
85, 0.00000, 18.717, 23.4854, 11.9542, 29.0041, 15.2817, 3.05198, 0, 0
85, 1800.00000, 20.2114, 24.3502, 11.9708, 31.1312, 16.2003, 0.65932, 0, 0
86, 0.00000, 22.0606, 18.8133, 15.7181, 31.619, 16.2135, 4.19915, 0, 0
86, 1800.00000, 19.513, 17.9931, 16.2444, 25.3873, 16.1196, 11.2154, 0, 0
87, 0.00000, 19.6113, 18.1682, 16.0962, 25.7938, 16.0771, 10.6639, 0, 0
87, 1800.00000, 22.4431, 22.0426, 17.3316, 23.0223, 20.0992, 9.72931, 0, 0
88, 0.00000, 20.5227, 25.0306, 17.9991, 14.8466, 22.2427, 14.5918, 0, 0
88, 1800.00000, 20.6473, 30.5209, 15.566, 11.9222, 23.274, 11.4605, 0, 0
89, 0.00000, 33.0078, 23.2106, 24.4486, 23.0568, 29.7521, 8.68809, 0, 0
89, 1800.00000, 42.9814, 19.7378, 31.2675, 29.26, 33.4279, 5.99645, 0, 0
90, 0.00000, 38.699, 20.4625, 31.7724, 22.8757, 34.5028, 11.5187, 0, 0
90, 1800.00000, 42.7192, 14.8531, 37.2863, 27.3036, 32.665, 12.3446, 0, 0
91, 0.00000, 43.2726, 16.3836, 36.283, 27.2073, 33.7402, 10.9457, 0, 0
91, 1800.00000, 38.8626, 19.2067, 27.4853, 31.4425, 28.8431, 4.16239, 0, 0
92, 0.00000, 36.1817, 20.4557, 27.3082, 26.2895, 29.9924, 8.07938, 0, 0
92, 1800.00000, 34.6495, 21.0654, 24.004, 29.3726, 27.3358, 4.67503, 0, 0
93, 0.00000, 29.9375, 25.0279, 22.8861, 19.2541, 29.2994, 10.4487, 0, 0
93, 1800.00000, 31.9545, 24.2452, 24.2849, 20.5565, 30.395, 9.99121, 0, 0
94, 0.00000, 24.3559, 23.85, 20.1561, 18.1332, 24.4123, 12.6611, 0, 0
94, 1800.00000, 21.4415, 22.892, 14.9058, 26.2058, 18.1997, 6.10296, 0, 0
95, 0.00000, 17.554, 25.7936, 11.0508, 25.5268, 15.4298, 4.25747, 0, 0
95, 1800.00000, 15.0526, 28.1506, 9.50235, 21.1634, 14.3242, 5.78, 0, 0
96, 0.00000, 11.7146, 24.6947, 9.52376, 17.594, 11.8802, 12.292, 0, 0
96, 1800.00000, 10.9092, 23.1896, 9.73907, 16.4806, 11.3952, 14.9064, 0, 0
97, 0.00000, 11.9162, 30.9536, 5.71574, 26.3402, 10.7871, -0.446806, 0, 0
97, 1800.00000, 9.93994, 30.3594, 5.02639, 25.4672, 9.03996, 0.589292, 0, 0
98, 0.00000, 8.84711, 22.6636, 5.7791, 29.4977, 7.09897, 3.33477, 0, 0
98, 1800.00000, 8.83222, 24.198, 5.5322, 28.6964, 7.30033, 2.85461, 0, 0
99, 0.00000, 11.7839, 29.0244, 5.97303, 28.5698, 10.2572, -0.534919, 0, 0
99, 1800.00000, 10.4452, 25.5711, 5.88016, 31.3209, 8.48325, -0.187528, 0, 0
100, 0.00000, 10.7686, 21.3052, 6.9075, 33.0536, 8.04172, 1.17987, 0, 0
100, 1800.00000, 10.7809, 25.8159, 6.38072, 28.2326, 9.12402, 2.00552, 0, 0
101, 0.00000, 13.2858, 24.318, 8.78069, 26.0065, 11.452, 5.0529, 0, 0
101, 1800.00000, 11.0961, 19.9425, 8.65997, 25.5782, 9.28383, 9.25644, 0, 0
102, 0.00000, 14.0523, 15.3571, 10.944, 32.3501, 9.61267, 6.34851, 0, 0
102, 1800.00000, 22.9575, 28.8214, 11.2499, 30.7596, 19.5199, -1.8893, 0, 0
103, 0.00000, 27.7517, 30.16, 11.4531, 36.4343, 22.9461, -6.10074, 0, 0
103, 1800.00000, 32.7478, 27.081, 16.3643, 34.1364, 26.3865, -3.22709, 0, 0
104, 0.00000, 30.8726, 31.7301, 14.0557, 26.4528, 28.0973, -1.2491, 0, 0
104, 1800.00000, 31.7157, 30.98, 15.7817, 24.572, 29.2589, 0.597682, 0, 0
105, 0.00000, 26.0572, 25.8254, 20.2106, 17.6482, 26.3879, 11.1333, 0, 0
105, 1800.00000, 19.8708, 25.1357, 15.7796, 17.8073, 20.0572, 11.6758, 0, 0
106, 0.00000, 17.4107, 30.6611, 11.6584, 14.9847, 18.4062, 8.50305, 0, 0
106, 1800.00000, 25.5459, 28.0297, 14.9997, 24.1777, 23.2518, 3.41836, 0, 0
107, 0.00000, 22.4953, 25.8848, 14.5711, 24.1469, 20.2094, 5.31686, 0, 0
107, 1800.00000, 18.8462, 28.3441, 11.5149, 21.9979, 17.7182, 4.87554, 0, 0
108, 0.00000, 18.757, 26.8556, 13.2841, 19.1955, 18.4144, 8.70645, 0, 0
108, 1800.00000, 21.605, 22.749, 16.0576, 23.5942, 19.2147, 8.61149, 0, 0
109, 0.00000, 25.2437, 27.1802, 13.492, 30.328, 21.1576, -0.534269, 0, 0
109, 1800.00000, 21.4412, 25.3608, 13.7701, 25.4022, 18.8187, 4.67563, 0, 0
110, 0.00000, 19.8123, 23.1715, 15.6595, 20.5773, 18.7707, 10.9604, 0, 0
110, 1800.00000, 18.0718, 21.5827, 16.5199, 17.5665, 18.3833, 15.4602, 0, 0
111, 0.00000, 16.45, 25.0778, 15.348, 13.1056, 18.7043, 16.3434, 0, 0
111, 1800.00000, 24.3853, 28.0799, 16.3961, 18.9314, 24.0701, 7.60764, 0, 0
112, 0.00000, 28.3214, 28.1054, 17.061, 22.9061, 26.246, 4.26882, 0, 0
112, 1800.00000, 25.2336, 18.6485, 21.4856, 23.6337, 21.8412, 12.3826, 0, 0
113, 0.00000, 28.7962, 15.8812, 21.849, 32.9422, 19.6513, 5.20733, 0, 0
113, 1800.00000, 39.5035, 19.1939, 31.8354, 25.2947, 33.0728, 10.3051, 0, 0
114, 0.00000, 46.0433, 20.7996, 32.4477, 29.0449, 36.426, 5.2669, 0, 0
114, 1800.00000, 43.6082, 22.7785, 31.7377, 24.4391, 38.1959, 7.82429, 0, 0
115, 0.00000, 42.1802, 20.4255, 29.043, 30.7531, 32.2487, 3.86164, 0, 0
115, 1800.00000, 33.0709, 21.7301, 24.6458, 24.9455, 28.4491, 8.21222, 0, 0
116, 0.00000, 31.9857, 24.0409, 24.4049, 20.6737, 30.3277, 10.0449, 0, 0
116, 1800.00000, 36.4588, 22.2362, 24.4173, 28.9846, 29.3625, 4.06777, 0, 0
117, 0.00000, 33.6129, 20.4373, 26.9994, 23.6814, 29.4079, 10.6313, 0, 0
117, 1800.00000, 30.1678, 20.7751, 20.6578, 30.4612, 23.2806, 3.89445, 0, 0
118, 0.00000, 24.0796, 19.6554, 18.8522, 25.8534, 19.9869, 9.25683, 0, 0
118, 1800.00000, 25.6333, 25.6397, 16.454, 24.9414, 22.7086, 4.83942, 0, 0
119, 0.00000, 22.2864, 24.631, 13.917, 28.0618, 18.6843, 3.08419, 0, 0
119, 1800.00000, 16.3823, 22.9506, 14.6714, 16.6829, 17.0351, 14.9804, 0, 0
120, 0.00000, 14.2587, 28.416, 11.6073, 12.7543, 16.0028, 13.0458, 0, 0
120, 1800.00000, 12.4136, 29.5584, 10.9617, 9.40454, 15.0894, 15.2408, 0, 0
121, 0.00000, 8.76083, 26.9037, 6.95446, 15.4316, 9.29554, 12.081, 0, 0
121, 1800.00000, 9.03032, 23.1416, 6.09239, 27.0919, 7.56592, 5.06085, 0, 0
122, 0.00000, 8.3831, 23.2384, 5.88075, 25.185, 7.26021, 6.66318, 0, 0
122, 1800.00000, 9.14838, 28.027, 5.2247, 25.3152, 8.1976, 2.52942, 0, 0
123, 0.00000, 8.20603, 25.8314, 5.22944, 24.8645, 7.28403, 4.71667, 0, 0
123, 1800.00000, 8.33666, 23.7453, 5.89024, 24.0724, 7.39095, 7.21409, 0, 0
124, 0.00000, 9.0156, 20.7514, 7.43482, 22.1853, 8.16468, 11.7418, 0, 0
124, 1800.00000, 9.3157, 24.0906, 5.85096, 28.7447, 7.68539, 2.87398, 0, 0
125, 0.00000, 9.92171, 18.1047, 8.18698, 25.6401, 8.15577, 10.8722, 0, 0
125, 1800.00000, 13.4529, 19.7458, 10.4459, 26.0856, 11.1189, 8.94517, 0, 0
126, 0.00000, 14.431, 22.7122, 10.4131, 24.8351, 12.5293, 7.46227, 0, 0
126, 1800.00000, 18.9704, 23.8629, 13.8597, 22.5805, 17.3069, 8.48415, 0, 0
127, 0.00000, 27.926, 31.8725, 13.5363, 23.5337, 26.1775, 0.586567, 0, 0
127, 1800.00000, 27.4314, 29.7602, 15.341, 22.5633, 25.7422, 3.07887, 0, 0
128, 0.00000, 23.9745, 27.3057, 12.9592, 29.3817, 20.3334, 0.0052682, 0, 0
128, 1800.00000, 27.3042, 28.9543, 14.8816, 25.3782, 24.6249, 1.7217, 0, 0
129, 0.00000, 27.3738, 26.4249, 18.0739, 22.3945, 25.3675, 6.2606, 0, 0
129, 1800.00000, 21.0933, 21.3885, 18.3453, 19.51, 20.4168, 13.809, 0, 0
130, 0.00000, 19.4857, 25.7018, 15.6521, 16.7223, 20.1497, 12.1683, 0, 0
130, 1800.00000, 20.4207, 27.4907, 14.3427, 18.4759, 20.3276, 8.68979, 0, 0
131, 0.00000, 22.5044, 24.1852, 15.4174, 24.642, 19.8202, 6.30639, 0, 0
131, 1800.00000, 20.3744, 20.7569, 14.7481, 27.7589, 16.4693, 6.4424, 0, 0
132, 0.00000, 16.3841, 21.7247, 11.8655, 26.2091, 13.7568, 7.05609, 0, 0
132, 1800.00000, 14.9358, 17.9528, 13.6832, 21.5786, 13.5652, 15.0973, 0, 0
133, 0.00000, 15.3477, 20.5592, 12.4033, 23.2574, 13.558, 10.9143, 0, 0
133, 1800.00000, 14.0882, 13.0735, 13.6087, 24.7797, 11.3409, 16.7282, 0, 0
134, 0.00000, 15.9518, 16.6083, 13.4296, 26.6924, 12.611, 11.2062, 0, 0
134, 1800.00000, 20.063, 16.2957, 14.704, 34.2906, 13.4378, 3.43451, 0, 0
135, 0.00000, 19.4511, 17.9202, 14.2933, 31.4818, 14.132, 5.09852, 0, 0
135, 1800.00000, 22.9802, 18.4445, 17.9374, 27.6231, 18.1497, 8.49376, 0, 0
136, 0.00000, 25.4838, 22.3596, 20.2956, 21.424, 23.6486, 10.9732, 0, 0
