hour, t(sec), S1 (kVA), Ang1, S2 (kVA), Ang2, S3 (kVA), Ang3, S4 (kVA), Ang4
0, 1800.00000, 11.2493, 18.2122, 11.2493, 18.2122, 11.2493, 18.2122, 0, 0
1, 0.00000, 9.06261, 18.2121, 9.05699, 18.251, 9.05447, 18.2008, 0, 0
1, 1800.00000, 7.45594, 18.1971, 7.46282, 18.2086, 7.45808, 18.2487, 0, 0
2, 0.00000, 7.04263, 18.2516, 7.04048, 18.1975, 7.04731, 18.2094, 0, 0
2, 1800.00000, 7.08058, 18.2098, 7.08058, 18.2098, 7.08058, 18.2098, 0, 0
3, 0.00000, 6.89257, 18.2087, 6.89257, 18.2087, 6.89257, 18.2087, 0, 0
3, 1800.00000, 6.85421, 18.2089, 6.85421, 18.2089, 6.85421, 18.2089, 0, 0
4, 0.00000, 7.11695, 18.2077, 7.11695, 18.2077, 7.11695, 18.2077, 0, 0
4, 1800.00000, 9.27914, 18.2189, 9.27914, 18.2189, 9.27914, 18.2189, 0, 0
5, 0.00000, 11.0102, 18.2161, 11.0172, 18.2241, 11.0124, 18.2516, 0, 0
5, 1800.00000, 14.0095, 18.2287, 14.0047, 18.2505, 14.0025, 18.2223, 0, 0
6, 0.00000, 15.6546, 18.2335, 15.6546, 18.2336, 15.6546, 18.2335, 0, 0
6, 1800.00000, 24.0545, 18.2568, 24.0473, 18.2525, 24.0524, 18.2397, 0, 0
7, 0.00000, 27.72, 18.2461, 27.727, 18.2473, 27.723, 18.2594, 0, 0
7, 1800.00000, 28.4165, 18.2855, 28.4358, 18.3375, 28.4038, 18.3453, 0, 0
8, 0.00000, 30.6339, 17.5306, 31.2644, 19.2346, 30.1536, 19.435, 0, 0
8, 1800.00000, 32.2287, 16.5058, 33.901, 20.4328, 31.1179, 21.2034, 0, 0
9, 0.00000, 25.1834, 19.2143, 27.6658, 21.4254, 25.6257, 25.197, 0, 0
9, 1800.00000, 9.40778, 36.4906, 11.7979, 29.72, 11.8358, 42.8164, 0, 0
10, 0.00000, 5.71213, 39.0846, 8.51491, 40.8888, 7.33874, 59.4929, 0, 0
10, 1800.00000, 3.11541, 87.7572, 6.33261, 56.793, 7.1034, 90.8009, 0, 0
11, 0.00000, 5.0247, 138.379, 3.75904, 69.2959, 7.94716, 99.9164, 0, 0
11, 1800.00000, 13.6046, 171.562, 4.6234, 162.911, 12.6674, 131.414, 0, 0
12, 0.00000, 15.6062, 174.02, 5.67765, 171.093, 13.9593, 135.228, 0, 0
12, 1800.00000, 14.1729, 174.104, 2.03782, -178.789, 13.0363, 121.245, 0, 0
13, 0.00000, 9.17004, 157.955, 2.66231, 15.688, 11.6719, 92.9897, 0, 0
13, 1800.00000, 8.13807, 160.794, 3.94952, 8.67629, 11.6681, 90.4268, 0, 0
14, 0.00000, 5.89411, 154.423, 3.79709, 33.7213, 9.68728, 94.1493, 0, 0
14, 1800.00000, 3.18623, 97.4471, 7.13238, 7.28098, 10.0184, 58.1848, 0, 0
15, 0.00000, 4.84763, 62.7112, 10.5913, -7.06823, 14.1827, 37.7069, 0, 0
15, 1800.00000, 12.3758, 18.534, 20.2583, 4.65381, 20.5859, 29.4102, 0, 0
16, 0.00000, 20.329, 13.3817, 24.1261, 12.3191, 22.8122, 21.0993, 0, 0
16, 1800.00000, 30.1222, 15.0583, 30.0442, 7.73552, 33.3449, 11.2683, 0, 0
17, 0.00000, 47.0472, 14.7004, 44.311, 11.9015, 47.6614, 10.4756, 0, 0
17, 1800.00000, 54.677, 15.5551, 49.4273, 16.2297, 51.7456, 10.823, 0, 0
18, 0.00000, 61.8793, 16.8864, 59.3601, 13.6102, 63.636, 13.2953, 0, 0
18, 1800.00000, 65.5597, 16.8178, 58.9777, 15.2989, 63.9729, 10.9608, 0, 0
19, 0.00000, 62.5042, 13.6564, 57.305, 17.0483, 57.0251, 10.75, 0, 0
19, 1800.00000, 62.9379, 12.6864, 58.5394, 17.97, 55.9963, 11.3419, 0, 0
20, 0.00000, 55.7166, 13.1897, 54.112, 17.0501, 51.7143, 13.5641, 0, 0
20, 1800.00000, 46.7609, 14.0097, 44.0859, 18.3468, 42.4958, 12.9956, 0, 0
21, 0.00000, 41.7869, 15.0862, 38.9798, 19.8303, 37.5509, 13.6677, 0, 0
21, 1800.00000, 40.6024, 15.2903, 36.8819, 19.8988, 36.1796, 12.3734, 0, 0
22, 0.00000, 36.1033, 15.6672, 30.4466, 20.1835, 31.3987, 8.74442, 0, 0
22, 1800.00000, 29.6698, 13.8075, 26.6651, 20.4048, 25.4657, 11.0615, 0, 0
23, 0.00000, 24.1465, 11.6454, 23.1156, 20.6606, 20.3679, 13.5497, 0, 0
23, 1800.00000, 23.0433, 11.328, 22.011, 20.7623, 19.2699, 13.2842, 0, 0
24, 0.00000, 19.3787, 10.0145, 18.3413, 21.2089, 15.6168, 12.1589, 0, 0
24, 1800.00000, 17.2131, 10.9032, 16.0072, 21.0013, 14.0597, 11.5032, 0, 0
25, 0.00000, 12.118, 16.8101, 10.2787, 19.4327, 10.8738, 9.58465, 0, 0
25, 1800.00000, 10.8241, 20.7086, 8.66114, 18.2151, 10.2768, 9.08738, 0, 0
26, 0.00000, 11.6057, 20.5556, 9.43441, 18.2482, 11.044, 9.70733, 0, 0
26, 1800.00000, 9.29973, 21.0851, 7.14417, 18.2123, 8.77267, 7.5387, 0, 0
27, 0.00000, 9.00585, 21.1715, 6.8519, 18.2119, 8.48348, 7.17792, 0, 0
27, 1800.00000, 10.3021, 20.8254, 8.13687, 18.2495, 9.75474, 8.59445, 0, 0
28, 0.00000, 9.43306, 21.0464, 7.27693, 18.2112, 8.90403, 7.69427, 0, 0
28, 1800.00000, 11.0168, 20.6662, 8.85517, 18.217, 10.4676, 9.26203, 0, 0
29, 0.00000, 8.98985, 18.2782, 8.94544, 18.2167, 8.9761, 18.0019, 0, 0
29, 1800.00000, 12.3914, 18.2227, 12.3913, 18.2226, 12.3913, 18.2224, 0, 0
30, 0.00000, 13.9731, 18.2209, 13.9801, 18.2272, 13.9753, 18.2487, 0, 0
30, 1800.00000, 18.1501, 18.2524, 18.148, 18.2302, 18.1551, 18.2354, 0, 0
31, 0.00000, 23.4529, 18.244, 23.4529, 18.244, 23.4529, 18.244, 0, 0
31, 1800.00000, 25.4081, 18.2605, 25.4173, 18.2603, 25.4128, 18.2783, 0, 0
32, 0.00000, 29.1695, 18.6916, 30.4975, 16.3864, 30.8829, 19.6462, 0, 0
32, 1800.00000, 26.8775, 19.5932, 29.3695, 15.8623, 29.7616, 21.8041, 0, 0
33, 0.00000, 18.5407, 21.4794, 21.9144, 16.1942, 21.9983, 26.2571, 0, 0
33, 1800.00000, 11.1994, 25.8039, 15.6277, 17.5782, 15.4798, 35.3945, 0, 0
34, 0.00000, 16.6636, 22.8251, 20.1522, 17.9022, 19.9719, 28.8412, 0, 0
34, 1800.00000, 15.3025, 23.9188, 17.1123, 23.0204, 16.4986, 28.9002, 0, 0
35, 0.00000, 14.4037, 26.2606, 14.6619, 24.6902, 14.8774, 26.3288, 0, 0
35, 1800.00000, 16.6356, 24.782, 16.893, 22.3708, 17.3719, 24.3004, 0, 0
36, 0.00000, 16.1056, 16.1706, 17.1458, 24.5438, 14.5102, 24.0722, 0, 0
36, 1800.00000, 16.664, 16.6854, 19.2225, 22.2966, 16.5562, 27.4071, 0, 0
37, 0.00000, 17.177, 21.4098, 20.2993, 17.2605, 20.0702, 26.9123, 0, 0
37, 1800.00000, 16.6945, 22.7432, 18.1085, 18.3915, 18.5688, 24.2613, 0, 0
38, 0.00000, 20.6777, 22.8761, 19.4016, 20.0471, 20.9197, 18.4697, 0, 0
38, 1800.00000, 16.5425, 21.1039, 18.7437, 14.4794, 19.4614, 23.2122, 0, 0
39, 0.00000, 15.0266, 21.1824, 17.5572, 14.0321, 18.1378, 24.2801, 0, 0
39, 1800.00000, 17.0132, 16.2014, 22.7169, 8.47474, 22.6275, 24.4186, 0, 0
40, 0.00000, 21.5651, 11.8105, 26.5996, 12.2339, 24.3147, 22.3853, 0, 0
40, 1800.00000, 30.1696, 11.716, 34.4821, 9.88041, 33.4112, 17.1594, 0, 0
41, 0.00000, 40.9767, 12.3813, 43.6043, 10.0805, 43.7982, 14.1716, 0, 0
41, 1800.00000, 58.6084, 13.2863, 59.8369, 13.7206, 58.8385, 14.5469, 0, 0
42, 0.00000, 69.0183, 8.45606, 71.1856, 17.973, 59.842, 15.1579, 0, 0
42, 1800.00000, 62.3004, 11.0193, 60.8118, 18.5951, 54.4219, 13.4372, 0, 0
43, 0.00000, 58.5091, 12.1944, 57.8234, 16.682, 54.1948, 13.8167, 0, 0
43, 1800.00000, 60.0709, 12.3688, 62.9893, 14.3278, 59.7453, 15.8134, 0, 0
44, 0.00000, 54.516, 11.1364, 53.5714, 17.7714, 48.5614, 13.4862, 0, 0
44, 1800.00000, 51.568, 9.92836, 52.1286, 18.3172, 45.1579, 14.803, 0, 0
45, 0.00000, 44.3948, 8.56034, 45.6242, 17.5586, 38.78, 14.7387, 0, 0
45, 1800.00000, 46.7507, 10.2282, 46.7066, 16.3032, 42.3837, 13.2369, 0, 0
46, 0.00000, 46.8628, 11.394, 46.3345, 15.0698, 43.9961, 12.6383, 0, 0
46, 1800.00000, 38.9524, 15.598, 37.3819, 13.6842, 39.2918, 12.667, 0, 0
47, 0.00000, 28.7218, 17.0659, 28.0032, 12.5801, 30.2684, 13.6609, 0, 0
47, 1800.00000, 22.4511, 16.6318, 21.828, 10.9753, 24.0095, 12.5431, 0, 0
48, 0.00000, 19.8717, 14.8873, 21.4297, 10.9346, 21.9079, 16.3664, 0, 0
48, 1800.00000, 18.0545, 14.5338, 17.9815, 14.6943, 17.9745, 14.4125, 0, 0
49, 0.00000, 14.3825, 14.5815, 14.3948, 14.4896, 14.4086, 14.5776, 0, 0
49, 1800.00000, 8.45917, 18.2105, 8.45913, 18.2108, 8.45911, 18.2105, 0, 0
50, 0.00000, 8.17304, 18.2133, 8.17304, 18.2133, 8.17304, 18.2133, 0, 0
50, 1800.00000, 7.71543, 18.2129, 7.71543, 18.2129, 7.71543, 18.2129, 0, 0
51, 0.00000, 7.0964, 18.2118, 7.0964, 18.2118, 7.0964, 18.2118, 0, 0
51, 1800.00000, 8.79516, 18.2452, 8.79982, 18.2104, 8.80211, 18.2541, 0, 0
52, 0.00000, 9.36731, 18.2219, 9.36731, 18.2218, 9.36732, 18.2218, 0, 0
52, 1800.00000, 8.80879, 18.2105, 8.86506, 17.8708, 8.88233, 18.3543, 0, 0
53, 0.00000, 9.35911, 18.2128, 10.997, 9.61113, 11.5489, 20.637, 0, 0
53, 1800.00000, 10.5977, 18.2151, 11.0949, 15.5281, 11.2911, 19.0257, 0, 0
54, 0.00000, 13.738, 18.2154, 13.745, 18.2216, 13.7402, 18.2438, 0, 0
54, 1800.00000, 12.9268, 18.2184, 12.9268, 18.2184, 12.9268, 18.2185, 0, 0
55, 0.00000, 16.1527, 18.2252, 16.1527, 18.2252, 16.1527, 18.2252, 0, 0
55, 1800.00000, 20.6252, 18.6732, 20.6792, 18.47, 20.7155, 18.7008, 0, 0
56, 0.00000, 25.5103, 19.7635, 25.896, 19.7677, 25.703, 20.5115, 0, 0
56, 1800.00000, 23.1215, 21.5865, 23.5395, 21.279, 23.4408, 22.317, 0, 0
57, 0.00000, 11.3838, 30.1155, 14.0479, 27.2288, 13.4572, 38.4019, 0, 0
57, 1800.00000, 5.38933, 58.5425, 8.08405, 39.8961, 8.78689, 62.948, 0, 0
58, 0.00000, 4.90676, 119.24, 5.22785, 63.6407, 8.57516, 92.5893, 0, 0
58, 1800.00000, 7.62727, 155.081, 4.31483, 95.1727, 10.4656, 116.018, 0, 0
59, 0.00000, 14.1314, 172.534, 7.8053, 162.787, 13.5671, 145.183, 0, 0
59, 1800.00000, 15.1029, 172.136, 8.09511, 161.84, 14.524, 143.767, 0, 0
60, 0.00000, 13.3169, 167.727, 6.66499, 150.117, 13.5455, 136.435, 0, 0
60, 1800.00000, 14.6075, 171.351, 7.55766, 157.142, 14.4975, 141.443, 0, 0
61, 0.00000, 13.4006, 169.07, 6.79255, 150.474, 13.7665, 137.981, 0, 0
61, 1800.00000, 13.2466, 170.263, 6.51642, 150.904, 13.633, 138.269, 0, 0
62, 0.00000, 12.0667, 170.189, 6.12393, 155.68, 11.9792, 139.69, 0, 0
62, 1800.00000, 7.40297, 161.53, 3.84688, 119.336, 9.03215, 126.127, 0, 0
63, 0.00000, 3.53548, 104.175, 5.02242, 35.0453, 7.75255, 74.3377, 0, 0
63, 1800.00000, 5.83166, 39.614, 10.2122, 22.8002, 10.5383, 50.2211, 0, 0
64, 0.00000, 7.76681, 25.741, 11.4971, 18.5181, 11.1039, 38.3809, 0, 0
64, 1800.00000, 15.7739, 19.412, 17.8684, 15.7563, 17.8273, 23.3137, 0, 0
65, 0.00000, 22.5486, 18.2873, 24.2322, 14.5655, 24.7302, 19.7387, 0, 0
65, 1800.00000, 29.2884, 17.5773, 31.7986, 14.113, 32.1907, 19.6459, 0, 0
66, 0.00000, 32.4317, 15.1316, 35.3678, 15.3998, 33.8507, 19.5873, 0, 0
66, 1800.00000, 32.4767, 13.3318, 35.1172, 16.8568, 32.0615, 19.2719, 0, 0
67, 0.00000, 35.3945, 13.33, 38.1393, 17.0705, 34.7499, 19.2131, 0, 0
67, 1800.00000, 32.5839, 15.3267, 34.8051, 16.2767, 33.2609, 19.1413, 0, 0
68, 0.00000, 35.0335, 16.4541, 35.0641, 16.2102, 35.1776, 16.3747, 0, 0
68, 1800.00000, 33.5486, 16.3738, 35.2213, 13.5645, 35.8557, 17.2476, 0, 0
69, 0.00000, 29.2943, 15.3537, 30.7856, 16.0138, 29.765, 18.1842, 0, 0
69, 1800.00000, 26.9078, 14.7194, 29.1566, 15.9023, 27.5951, 19.3901, 0, 0
70, 0.00000, 27.7272, 15.4262, 28.7718, 15.8772, 28.0694, 17.5065, 0, 0
70, 1800.00000, 29.6155, 16.1169, 29.5924, 15.9352, 29.6851, 15.9869, 0, 0
71, 0.00000, 25.9746, 15.7818, 24.9724, 17.8632, 24.6866, 14.7882, 0, 0
71, 1800.00000, 20.0784, 15.0298, 18.4904, 19.7447, 17.953, 12.8958, 0, 0
72, 0.00000, 17.6579, 13.503, 17.4809, 19.836, 15.8641, 16.1079, 0, 0
72, 1800.00000, 12.352, 10.6618, 12.9179, 20.3029, 10.7641, 18.2218, 0, 0
73, 0.00000, 9.82244, 17.5973, 9.86563, 18.3942, 9.72534, 18.2177, 0, 0
73, 1800.00000, 8.43361, 18.2147, 8.43363, 18.2154, 8.43353, 18.2152, 0, 0
74, 0.00000, 10.0185, 18.2205, 10.0185, 18.2205, 10.0185, 18.2205, 0, 0
74, 1800.00000, 9.6969, 18.2212, 9.6969, 18.2212, 9.6969, 18.2212, 0, 0
75, 0.00000, 8.15894, 18.2114, 8.15894, 18.2114, 8.15894, 18.2114, 0, 0
75, 1800.00000, 7.66817, 18.2001, 7.67511, 18.2114, 7.67033, 18.2507, 0, 0
76, 0.00000, 9.33373, 18.2049, 9.34071, 18.2144, 9.33589, 18.2468, 0, 0
76, 1800.00000, 9.86702, 18.2151, 9.86703, 18.2152, 9.86702, 18.2152, 0, 0
77, 0.00000, 7.80431, 18.2117, 7.80431, 18.2117, 7.80431, 18.2117, 0, 0
77, 1800.00000, 9.8503, 18.2149, 9.8503, 18.2149, 9.8503, 18.2149, 0, 0
78, 0.00000, 11.1234, 18.2168, 11.1185, 18.2441, 11.1164, 18.2088, 0, 0
78, 1800.00000, 13.6379, 18.2138, 13.64, 18.243, 13.633, 18.2362, 0, 0
79, 0.00000, 17.1216, 18.2234, 17.1216, 18.2235, 17.1215, 18.2235, 0, 0
79, 1800.00000, 18.3345, 18.3113, 18.3477, 18.2302, 18.3636, 18.3063, 0, 0
80, 0.00000, 21.5004, 18.7844, 21.776, 18.6409, 21.6859, 19.3433, 0, 0
80, 1800.00000, 18.901, 20.1336, 20.0763, 21.0361, 19.2481, 23.6344, 0, 0
81, 0.00000, 18.1669, 24.4305, 19.2372, 21.7624, 19.4702, 25.7872, 0, 0
81, 1800.00000, 19.0303, 25.8846, 20.6507, 21.3947, 21.2116, 27.3428, 0, 0
82, 0.00000, 14.1225, 29.9412, 17.7753, 24.8395, 17.4313, 37.5697, 0, 0
82, 1800.00000, 8.55632, 37.2004, 11.9006, 30.1073, 11.6405, 47.5141, 0, 0
83, 0.00000, 8.52332, 35.468, 11.7308, 35.021, 10.5638, 50.4659, 0, 0
83, 1800.00000, 4.87342, 87.9814, 6.0715, 44.5195, 8.6226, 71.1886, 0, 0
84, 0.00000, 6.41245, 55.9362, 7.94693, 37.4181, 9.16243, 54.1283, 0, 0
84, 1800.00000, 6.21277, 56.9141, 8.67036, 47.4297, 8.71748, 65.574, 0, 0
85, 0.00000, 4.02549, 128.884, 4.22023, 77.1292, 6.82564, 103.93, 0, 0
85, 1800.00000, 6.01236, 155.993, 3.7303, 79.9023, 9.0733, 112.56, 0, 0
86, 0.00000, 5.44546, 144.012, 4.5188, 48.5419, 9.73522, 95.1234, 0, 0
86, 1800.00000, 4.81722, 57.3677, 7.98588, 30.8523, 9.06963, 58.8535, 0, 0
87, 0.00000, 8.06276, 29.932, 12.3492, 18.2709, 12.4398, 40.3263, 0, 0
87, 1800.00000, 16.4497, 19.6489, 18.5642, 17.2963, 18.2124, 24.1757, 0, 0
88, 0.00000, 19.1187, 11.6662, 23.5775, 15.9104, 20.3444, 24.9768, 0, 0
88, 1800.00000, 22.7803, 6.04268, 27.9408, 15.459, 22.1616, 22.9379, 0, 0
89, 0.00000, 32.9915, 10.2236, 37.8161, 15.4286, 32.8557, 20.3444, 0, 0
89, 1800.00000, 40.191, 10.9511, 43.5724, 18.1199, 37.387, 19.2165, 0, 0
90, 0.00000, 39.743, 10.8645, 42.5573, 18.8994, 36.1464, 18.9319, 0, 0
90, 1800.00000, 42.2025, 11.2437, 43.9052, 20.5021, 36.9351, 18.3001, 0, 0
91, 0.00000, 42.7649, 10.8581, 44.5626, 20.6068, 37.1241, 18.2881, 0, 0
91, 1800.00000, 34.6755, 11.9067, 35.9974, 20.1495, 30.8739, 18.2649, 0, 0
92, 0.00000, 33.9339, 12.635, 35.1025, 19.923, 30.6703, 18.2604, 0, 0
92, 1800.00000, 31.3153, 12.2224, 32.4044, 20.0363, 28.0466, 18.1525, 0, 0
93, 0.00000, 32.5187, 13.3003, 31.4617, 20.1286, 28.6571, 14.8396, 0, 0
93, 1800.00000, 35.753, 10.9968, 35.177, 20.8993, 30.0461, 14.982, 0, 0
94, 0.00000, 25.6505, 12.8, 26.1428, 19.9423, 23.0595, 17.4837, 0, 0
94, 1800.00000, 19.4813, 13.4007, 20.0813, 19.6348, 17.8981, 18.2431, 0, 0
95, 0.00000, 14.4101, 18.2162, 14.4071, 18.2602, 14.3991, 18.2279, 0, 0
95, 1800.00000, 12.7416, 18.2307, 12.7415, 18.2307, 12.7415, 18.2307, 0, 0
96, 0.00000, 10.9706, 18.21, 10.9776, 18.2179, 10.9728, 18.2454, 0, 0
96, 1800.00000, 10.6495, 18.2145, 10.6495, 18.2145, 10.6495, 18.2145, 0, 0
97, 0.00000, 9.12169, 18.2044, 9.12865, 18.214, 9.12385, 18.2471, 0, 0
97, 1800.00000, 7.74226, 18.2515, 7.74012, 18.2023, 7.74694, 18.2131, 0, 0
98, 0.00000, 7.10394, 18.2133, 7.10394, 18.2133, 7.10394, 18.2133, 0, 0
98, 1800.00000, 7.07409, 18.2137, 7.07409, 18.2137, 7.07409, 18.2137, 0, 0
99, 0.00000, 9.01885, 18.2173, 9.01885, 18.2173, 9.01885, 18.2173, 0, 0
99, 1800.00000, 8.02436, 18.2171, 8.02436, 18.2171, 8.02436, 18.2171, 0, 0
100, 0.00000, 8.34717, 18.2063, 8.35411, 18.2167, 8.34933, 18.2527, 0, 0
100, 1800.00000, 8.55242, 18.2153, 8.55243, 18.2153, 8.55242, 18.2154, 0, 0
101, 0.00000, 10.9885, 18.2181, 10.9906, 18.2536, 10.9836, 18.2456, 0, 0
101, 1800.00000, 9.60623, 18.2234, 9.60623, 18.2235, 9.60622, 18.2235, 0, 0
102, 0.00000, 11.3194, 18.2168, 11.3215, 18.2511, 11.3146, 18.2431, 0, 0
102, 1800.00000, 17.1372, 18.2331, 17.1443, 18.2386, 17.1393, 18.2565, 0, 0
103, 0.00000, 19.3136, 18.2368, 19.3136, 18.2368, 19.3136, 18.2369, 0, 0
103, 1800.00000, 23.7653, 18.3296, 23.79, 18.2733, 23.7978, 18.353, 0, 0
104, 0.00000, 21.896, 18.8361, 22.2397, 18.8417, 22.0674, 19.6129, 0, 0
104, 1800.00000, 23.3638, 18.1874, 23.4082, 20.4442, 22.5848, 19.4188, 0, 0
105, 0.00000, 22.1815, 19.2046, 21.6054, 22.4036, 20.8349, 19.4139, 0, 0
105, 1800.00000, 13.9965, 24.1413, 13.9592, 24.4085, 13.9215, 24.1419, 0, 0
106, 0.00000, 10.6911, 23.8463, 11.3139, 27.1845, 10.4571, 28.5257, 0, 0
106, 1800.00000, 15.2495, 21.702, 16.6051, 23.5382, 15.5274, 27.0024, 0, 0
107, 0.00000, 11.1942, 23.7966, 13.7364, 25.2737, 12.3844, 34.8603, 0, 0
107, 1800.00000, 5.33843, 37.3163, 8.75096, 32.2031, 8.10778, 55.5472, 0, 0
108, 0.00000, 6.12688, 32.0589, 9.51749, 36.0087, 7.93587, 56.2056, 0, 0
108, 1800.00000, 10.4594, 19.0602, 14.2855, 27.6793, 11.2664, 41.2103, 0, 0
109, 0.00000, 10.2052, 31.2853, 13.0887, 20.5333, 13.6852, 35.8019, 0, 0
109, 1800.00000, 10.26, 33.3554, 10.7192, 25.9994, 11.6385, 31.5559, 0, 0
110, 0.00000, 9.90987, 27.4825, 12.2808, 25.0956, 11.6688, 36.304, 0, 0
110, 1800.00000, 10.914, 16.8171, 15.5684, 20.2436, 13.1986, 36.6369, 0, 0
111, 0.00000, 12.4078, 22.2622, 16.5226, 10.471, 17.2796, 27.4855, 0, 0
111, 1800.00000, 20.0242, 20.4322, 22.576, 11.1908, 24.2857, 20.7633, 0, 0
112, 0.00000, 24.6156, 16.7646, 26.9418, 12.8594, 27.3495, 18.948, 0, 0
112, 1800.00000, 24.9886, 19.9867, 26.0216, 10.1639, 29.1984, 16.7218, 0, 0
113, 0.00000, 30.9918, 13.8522, 36.6543, 5.76414, 38.1368, 16.8639, 0, 0
113, 1800.00000, 46.4503, 13.374, 48.0789, 12.6597, 47.7872, 14.7031, 0, 0
114, 0.00000, 49.7824, 16.663, 48.5008, 12.0214, 52.5559, 13.1409, 0, 0
114, 1800.00000, 47.5018, 15.828, 48.9285, 11.5288, 51.3145, 15.0145, 0, 0
115, 0.00000, 44.5292, 12.0152, 48.502, 12.101, 46.568, 16.3059, 0, 0
115, 1800.00000, 35.8991, 14.4547, 39.4208, 10.02, 40.2501, 16.4767, 0, 0
116, 0.00000, 34.608, 13.6278, 36.0828, 14.9308, 34.668, 16.4118, 0, 0
116, 1800.00000, 38.3863, 12.8455, 36.92, 18.1782, 34.6128, 13.3678, 0, 0
117, 0.00000, 41.187, 13.1317, 37.9453, 18.4752, 36.4585, 11.2808, 0, 0
117, 1800.00000, 34.8436, 11.9792, 32.2708, 18.3781, 30.3596, 10.8512, 0, 0
118, 0.00000, 31.0597, 11.1614, 28.8184, 18.277, 26.7484, 10.4282, 0, 0
118, 1800.00000, 32.8433, 11.8913, 29.3508, 18.373, 28.1882, 8.7871, 0, 0
119, 0.00000, 29.3311, 7.27922, 28.0365, 19.2656, 23.3787, 10.4009, 0, 0
119, 1800.00000, 25.5825, 6.56423, 24.7779, 20.0124, 19.9211, 11.1917, 0, 0
120, 0.00000, 19.3408, 9.40571, 18.3191, 21.5126, 15.3184, 11.9818, 0, 0
120, 1800.00000, 16.3238, 14.2128, 14.766, 20.0893, 14.2151, 11.5533, 0, 0
121, 0.00000, 10.6101, 10.3573, 10.4008, 20.7855, 8.81144, 14.3445, 0, 0
121, 1800.00000, 7.56556, 17.244, 7.6173, 18.4862, 7.44862, 18.2128, 0, 0
122, 0.00000, 7.09112, 18.2098, 7.09114, 18.2108, 7.09102, 18.2104, 0, 0
122, 1800.00000, 7.34299, 18.2103, 7.34299, 18.2103, 7.34299, 18.2103, 0, 0
123, 0.00000, 6.79192, 18.2103, 6.79192, 18.2103, 6.79192, 18.2103, 0, 0
123, 1800.00000, 7.12887, 18.2101, 7.12887, 18.2101, 7.12887, 18.2101, 0, 0
124, 0.00000, 8.17116, 18.2092, 8.17116, 18.2092, 8.17116, 18.2092, 0, 0
124, 1800.00000, 7.45239, 18.1991, 7.45928, 18.2105, 7.45455, 18.2507, 0, 0
125, 0.00000, 8.70061, 18.2179, 8.70062, 18.218, 8.70061, 18.218, 0, 0
125, 1800.00000, 11.5719, 18.2273, 11.5719, 18.2273, 11.5719, 18.2273, 0, 0
126, 0.00000, 12.3202, 18.227, 12.3202, 18.227, 12.3202, 18.227, 0, 0
126, 1800.00000, 16.5316, 18.2318, 16.5337, 18.2558, 16.5267, 18.2503, 0, 0
127, 0.00000, 21.5915, 18.2464, 21.5915, 18.2464, 21.5915, 18.2464, 0, 0
127, 1800.00000, 22.0867, 18.2829, 22.0722, 18.3053, 22.072, 18.2616, 0, 0
128, 0.00000, 18.1312, 18.2992, 18.2642, 18.3519, 18.1834, 18.6891, 0, 0
128, 1800.00000, 20.2939, 18.8252, 20.7877, 18.6158, 20.6093, 19.9091, 0, 0
129, 0.00000, 20.6059, 19.9663, 21.3999, 18.8495, 21.3656, 21.2421, 0, 0
129, 1800.00000, 15.0083, 22.6091, 17.1698, 17.5217, 17.4017, 26.0753, 0, 0
130, 0.00000, 8.96501, 31.5228, 11.8102, 24.2652, 11.7441, 39.5351, 0, 0
130, 1800.00000, 7.0005, 23.4237, 12.163, 29.9131, 9.77993, 54.8109, 0, 0
131, 0.00000, 10.0636, 32.1561, 11.3915, 29.1478, 11.2673, 36.4213, 0, 0
131, 1800.00000, 11.3124, 30.4698, 10.9256, 25.6785, 11.9184, 26.499, 0, 0
132, 0.00000, 5.62084, 68.4814, 5.13884, 19.9536, 8.7364, 42.361, 0, 0
132, 1800.00000, 3.99749, 102.306, 5.94015, 8.97199, 9.67648, 58.2901, 0, 0
133, 0.00000, 3.9115, 51.7371, 7.2713, 24.366, 8.09493, 55.52, 0, 0
133, 1800.00000, 1.51973, 122.614, 6.65947, 24.9519, 8.08378, 80.8704, 0, 0
134, 0.00000, 2.75998, 17.0373, 10.2335, 22.2981, 8.92735, 67.7062, 0, 0
134, 1800.00000, 9.40368, 9.69386, 15.8995, 17.4142, 12.5771, 41.1983, 0, 0
135, 0.00000, 11.4187, 14.7757, 14.9173, 20.0225, 12.5003, 31.8046, 0, 0
135, 1800.00000, 19.9869, 10.5303, 21.1927, 24.1727, 16.2493, 21.2927, 0, 0
136, 0.00000, 26.5317, 12.9518, 28.7835, 14.9752, 26.8762, 18.1763, 0, 0
