hour, t(sec), S1 (kVA), Ang1, S2 (kVA), Ang2, S3 (kVA), Ang3, S4 (kVA), Ang4
0, 1800.00000, 11.0811, 20.8399, 10.9056, 16.0593, 11.7785, 17.7241, 0, 0
1, 0.00000, 8.97601, 19.238, 8.95927, 17.2602, 9.23425, 18.1587, 0, 0
1, 1800.00000, 7.998, 14.48, 7.68774, 23.5054, 6.75618, 16.6218, 0, 0
2, 0.00000, 7.67432, 14.0347, 7.27374, 24.5645, 6.26587, 15.9761, 0, 0
2, 1800.00000, 7.86005, 14.8915, 7.15371, 25.3195, 6.32763, 14.293, 0, 0
3, 0.00000, 7.78786, 14.0866, 7.02384, 26.6529, 5.99936, 13.6793, 0, 0
3, 1800.00000, 7.52814, 14.3713, 7.0157, 24.8895, 6.10529, 15.2632, 0, 0
4, 0.00000, 7.76182, 12.5145, 7.54147, 25.0977, 6.15718, 16.9361, 0, 0
4, 1800.00000, 10.3805, 11.8555, 9.87713, 26.7441, 7.78585, 15.8886, 0, 0
5, 0.00000, 11.8186, 16.3022, 10.9982, 22.8539, 10.2881, 15.4971, 0, 0
5, 1800.00000, 15.2908, 14.217, 14.4132, 24.622, 12.4864, 15.7715, 0, 0
6, 0.00000, 16.8817, 13.4011, 16.4144, 24.1835, 13.8746, 17.0513, 0, 0
6, 1800.00000, 24.941, 13.3377, 25.6017, 22.0947, 21.8673, 19.2982, 0, 0
7, 0.00000, 31.005, 11.3288, 29.8724, 26.7447, 23.1294, 16.4784, 0, 0
7, 1800.00000, 32.1669, 12.997, 29.6733, 27.0588, 24.2566, 14.6257, 0, 0
8, 0.00000, 34.6784, 13.7833, 31.8331, 27.2658, 26.412, 14.8727, 0, 0
8, 1800.00000, 37.0042, 14.0861, 33.7317, 28.6144, 27.5262, 15.087, 0, 0
9, 0.00000, 28.1634, 17.4999, 27.2564, 27.6523, 23.3776, 20.5794, 0, 0
9, 1800.00000, 11.3823, 35.0749, 10.9864, 38.8444, 10.5478, 35.0634, 0, 0
10, 0.00000, 6.75276, 42.3101, 7.72793, 46.3039, 6.85327, 51.5303, 0, 0
10, 1800.00000, 3.65968, 67.474, 6.78873, 67.4615, 5.88624, 94.8925, 0, 0
11, 0.00000, 3.45026, 137.276, 5.31204, 72.5108, 7.81044, 111.25, 0, 0
11, 1800.00000, 12.0687, 171.234, 5.79332, 151.389, 12.4262, 138.539, 0, 0
12, 0.00000, 14.0275, 171.979, 7.10627, 162.414, 13.3218, 141.952, 0, 0
12, 1800.00000, 12.9805, 169.193, 3.7372, 169.565, 11.5433, 125.388, 0, 0
13, 0.00000, 6.96309, 146.059, 2.97476, 76.2979, 9.15248, 100.519, 0, 0
13, 1800.00000, 5.68234, 140.355, 3.29624, 66.8595, 8.30023, 97.0926, 0, 0
14, 0.00000, 4.18603, 129.762, 4.24797, 73.7336, 7.15206, 102.017, 0, 0
14, 1800.00000, 3.38758, 78.7693, 6.60494, 15.4698, 8.9227, 56.9784, 0, 0
15, 0.00000, 5.80299, 52.2304, 9.53638, -1.58945, 13.0062, 34.3247, 0, 0
15, 1800.00000, 14.0262, 18.3762, 19.1341, 8.36913, 19.4672, 25.7808, 0, 0
16, 0.00000, 23.0826, 13.1873, 22.9036, 18.3221, 21.1891, 15.3345, 0, 0
16, 1800.00000, 33.2812, 15.1364, 28.2124, 12.78, 32.1412, 6.18514, 0, 0
17, 0.00000, 50.7152, 13.3101, 43.6041, 16.7438, 45.1601, 7.0489, 0, 0
17, 1800.00000, 57.2244, 15.4785, 48.4561, 18.7534, 50.8365, 8.37298, 0, 0
18, 0.00000, 66.1513, 16.7681, 57.3616, 17.1729, 61.8958, 9.86812, 0, 0
18, 1800.00000, 69.1386, 17.8779, 56.2948, 17.5668, 64.0486, 7.69694, 0, 0
19, 0.00000, 66.8331, 12.3959, 57.0459, 21.4444, 54.081, 7.5323, 0, 0
19, 1800.00000, 66.8075, 9.24663, 61.0106, 22.5902, 50.9577, 9.98067, 0, 0
20, 0.00000, 59.0247, 10.9584, 54.9855, 21.0658, 48.2652, 11.6981, 0, 0
20, 1800.00000, 49.4063, 11.3094, 45.2751, 22.4824, 39.3459, 11.4423, 0, 0
21, 0.00000, 42.3266, 10.9068, 41.6662, 22.1107, 34.7171, 15.5559, 0, 0
21, 1800.00000, 41.0265, 12.3335, 38.6853, 21.6935, 34.174, 13.4878, 0, 0
22, 0.00000, 37.4336, 14.4298, 30.6863, 23.0039, 30.1979, 7.10357, 0, 0
22, 1800.00000, 30.5535, 11.2272, 27.6508, 23.1059, 23.8907, 10.8175, 0, 0
23, 0.00000, 25.8056, 8.75779, 23.8776, 25.3239, 18.4811, 11.5107, 0, 0
23, 1800.00000, 24.6076, 10.6385, 21.8337, 24.7895, 18.279, 9.69912, 0, 0
24, 0.00000, 19.8433, 10.2643, 18.1257, 22.4762, 15.4646, 10.5567, 0, 0
24, 1800.00000, 17.5726, 11.8928, 15.6058, 21.8367, 14.1535, 9.63883, 0, 0
25, 0.00000, 12.0794, 17.1137, 10.2367, 19.0787, 10.9461, 9.62697, 0, 0
25, 1800.00000, 10.9032, 20.7408, 8.61048, 18.6414, 10.2564, 8.64129, 0, 0
26, 0.00000, 11.7281, 19.5528, 9.54133, 19.5268, 10.808, 9.44286, 0, 0
26, 1800.00000, 9.84507, 18.2426, 7.30201, 23.7991, 8.1652, 4.93659, 0, 0
27, 0.00000, 9.69358, 17.6873, 7.0413, 25.3854, 7.75252, 3.6467, 0, 0
27, 1800.00000, 10.5401, 17.8912, 8.48718, 21.4732, 9.17595, 8.30698, 0, 0
28, 0.00000, 10.0414, 17.7695, 7.48554, 24.3902, 8.19901, 4.90306, 0, 0
28, 1800.00000, 11.7183, 14.5468, 9.64952, 25.3635, 9.09147, 8.01566, 0, 0
29, 0.00000, 9.77523, 11.8617, 9.60919, 25.1815, 7.68246, 17.3955, 0, 0
29, 1800.00000, 13.3226, 15.5813, 12.5177, 23.2425, 11.4209, 15.7909, 0, 0
30, 0.00000, 15.6027, 13.7981, 14.388, 26.0234, 12.1985, 14.6982, 0, 0
30, 1800.00000, 19.8969, 13.1164, 19.0268, 25.1933, 15.8325, 16.2938, 0, 0
31, 0.00000, 27.4013, 12.338, 24.5247, 29.1117, 19.3256, 12.7982, 0, 0
31, 1800.00000, 29.2421, 17.6616, 24.1013, 26.365, 23.5649, 10.6705, 0, 0
32, 0.00000, 31.7186, 18.4752, 29.3719, 20.6417, 29.6181, 15.5793, 0, 0
32, 1800.00000, 29.0539, 18.0083, 28.9504, 20.2683, 28.0079, 18.9577, 0, 0
33, 0.00000, 21.9118, 22.5353, 19.8081, 23.4765, 20.6475, 17.9142, 0, 0
33, 1800.00000, 13.1332, 21.9806, 15.2896, 25.173, 13.6513, 31.574, 0, 0
34, 0.00000, 18.1961, 15.0872, 21.5796, 24.4749, 17.2745, 30.0062, 0, 0
34, 1800.00000, 17.5328, 16.5535, 18.248, 32.1506, 13.5404, 27.1823, 0, 0
35, 0.00000, 17.2824, 19.9379, 15.25, 37.1868, 12.0135, 19.5112, 0, 0
35, 1800.00000, 19.2231, 18.668, 17.6152, 32.6688, 14.4756, 19.814, 0, 0
36, 0.00000, 19.199, 13.2584, 17.2853, 34.9884, 12.1029, 15.5596, 0, 0
36, 1800.00000, 19.5979, 11.6515, 19.9461, 31.6531, 13.5344, 23.0765, 0, 0
37, 0.00000, 18.7462, 18.4255, 20.3231, 22.3976, 18.4023, 24.7611, 0, 0
37, 1800.00000, 17.6554, 21.6067, 17.8935, 21.5256, 17.7971, 22.2305, 0, 0
38, 0.00000, 20.8025, 19.2833, 20.4891, 22.1485, 19.7488, 19.9209, 0, 0
38, 1800.00000, 15.9162, 20.5114, 19.2936, 13.1921, 19.7101, 25.0495, 0, 0
39, 0.00000, 15.0203, 18.7289, 18.1064, 15.1567, 17.6408, 25.4973, 0, 0
39, 1800.00000, 16.6669, 13.2796, 23.6676, 8.9499, 22.2627, 26.5574, 0, 0
40, 0.00000, 22.0653, 10.5158, 26.8301, 13.6252, 23.6564, 22.288, 0, 0
40, 1800.00000, 31.0126, 8.67401, 35.5107, 12.3502, 31.6375, 17.7328, 0, 0
41, 0.00000, 42.3699, 8.96797, 45.1477, 13.1516, 41.0327, 14.5116, 0, 0
41, 1800.00000, 60.5378, 10.4861, 61.6859, 16.4833, 55.5112, 14.5752, 0, 0
42, 0.00000, 72.1704, 7.55576, 71.4907, 20.475, 57.4299, 13.4782, 0, 0
42, 1800.00000, 67.6792, 9.43075, 61.0734, 23.6673, 50.5008, 9.68828, 0, 0
43, 0.00000, 63.1333, 11.4274, 56.9676, 21.092, 51.4308, 10.0613, 0, 0
43, 1800.00000, 64.8656, 11.256, 62.1872, 18.6623, 56.3724, 12.5506, 0, 0
44, 0.00000, 56.9788, 10.5751, 53.2723, 20.3456, 46.95, 11.3972, 0, 0
44, 1800.00000, 51.5496, 9.51931, 52.5215, 18.4023, 44.9218, 15.123, 0, 0
45, 0.00000, 45.424, 10.1934, 44.0913, 18.1511, 39.3045, 12.4535, 0, 0
45, 1800.00000, 47.9145, 12.4436, 44.6159, 16.6191, 43.4314, 10.6901, 0, 0
46, 0.00000, 49.1362, 12.7495, 44.3862, 16.9644, 43.9761, 9.38171, 0, 0
46, 1800.00000, 42.0359, 14.7357, 36.4692, 18.256, 37.4893, 8.97367, 0, 0
47, 0.00000, 32.6174, 13.5379, 27.8779, 21.3531, 26.9613, 8.3661, 0, 0
47, 1800.00000, 24.6573, 15.8645, 20.9201, 16.3898, 22.8464, 7.95161, 0, 0
48, 0.00000, 22.238, 14.7506, 20.2641, 16.5477, 20.747, 10.8783, 0, 0
48, 1800.00000, 20.4327, 15.6315, 16.5939, 21.0724, 17.317, 6.98429, 0, 0
49, 0.00000, 15.7547, 12.8769, 14.1976, 20.1752, 13.3708, 10.5404, 0, 0
49, 1800.00000, 9.48052, 13.2565, 8.77799, 26.4171, 7.28694, 14.7693, 0, 0
50, 0.00000, 9.37774, 14.2958, 8.25691, 27.5234, 7.07632, 12.556, 0, 0
50, 1800.00000, 9.16444, 15.2029, 7.57107, 29.4497, 6.67113, 9.61719, 0, 0
51, 0.00000, 8.25276, 15.8779, 6.91859, 27.841, 6.29554, 10.7004, 0, 0
51, 1800.00000, 10.1258, 14.3853, 8.86775, 27.7194, 7.61273, 12.3307, 0, 0
52, 0.00000, 10.4688, 12.1409, 9.92377, 26.6135, 7.90804, 15.7444, 0, 0
52, 1800.00000, 10.1666, 13.7122, 9.02672, 27.6838, 7.57852, 12.7476, 0, 0
53, 0.00000, 9.64587, 15.5697, 11.1761, 12.1563, 11.019, 20.6486, 0, 0
53, 1800.00000, 12.0479, 13.3662, 11.3321, 24.2969, 9.73196, 15.0037, 0, 0
54, 0.00000, 15.3616, 17.2723, 13.258, 24.7782, 12.8001, 12.5501, 0, 0
54, 1800.00000, 14.2346, 16.707, 12.6763, 24.136, 12.0016, 13.739, 0, 0
55, 0.00000, 19.6877, 13.7019, 16.2688, 31.446, 13.3553, 8.77204, 0, 0
55, 1800.00000, 24.2012, 14.5223, 20.8631, 29.1082, 17.6768, 11.7974, 0, 0
56, 0.00000, 30.106, 17.6821, 25.0577, 29.921, 22.8212, 12.1379, 0, 0
56, 1800.00000, 28.1264, 21.1822, 21.7387, 32.7365, 21.2893, 11.0724, 0, 0
57, 0.00000, 15.0298, 24.6983, 13.8505, 42.8283, 10.3825, 27.6865, 0, 0
57, 1800.00000, 7.10703, 40.1739, 8.92936, 56.5698, 6.19272, 64.2455, 0, 0
58, 0.00000, 5.08845, 79.4245, 7.20388, 89.6956, 5.51442, 104.941, 0, 0
58, 1800.00000, 5.23471, 143.435, 6.88365, 103.829, 9.3166, 130.207, 0, 0
59, 0.00000, 12.7932, 170.847, 9.01083, 157.741, 13.3321, 151.133, 0, 0
59, 1800.00000, 13.5094, 170.088, 9.5762, 156.391, 14.1928, 150.44, 0, 0
60, 0.00000, 11.4777, 164.283, 8.56935, 145.186, 12.9564, 144.78, 0, 0
60, 1800.00000, 13.2489, 173.028, 8.31772, 148.496, 14.9508, 146.653, 0, 0
61, 0.00000, 11.9961, 167.232, 8.13665, 145.953, 13.4307, 144.012, 0, 0
61, 1800.00000, 12.2448, 169.918, 7.34888, 146.253, 13.562, 142.498, 0, 0
62, 0.00000, 11.4465, 173.235, 6.18686, 147.477, 12.5971, 142.557, 0, 0
62, 1800.00000, 6.13737, 165.469, 4.98701, 110.006, 9.42421, 134.016, 0, 0
63, 0.00000, 2.78957, 82.6002, 5.9052, 46.3802, 6.79756, 82.3193, 0, 0
63, 1800.00000, 6.82151, 23.0607, 11.2056, 32.4575, 8.66348, 55.0061, 0, 0
64, 0.00000, 8.63383, 16.7633, 12.2092, 25.1244, 9.63037, 40.4849, 0, 0
64, 1800.00000, 18.5944, 18.6638, 16.7073, 24.2559, 16.2294, 15.5255, 0, 0
65, 0.00000, 26.352, 17.0968, 22.8757, 23.203, 22.5318, 12.2449, 0, 0
65, 1800.00000, 31.4331, 14.5602, 32.1584, 18.8147, 29.7382, 17.9361, 0, 0
66, 0.00000, 34.9326, 12.1673, 35.8945, 20.1597, 31.0701, 17.7851, 0, 0
66, 1800.00000, 33.8097, 11.3456, 35.6602, 19.5219, 30.4062, 18.6017, 0, 0
67, 0.00000, 37.9601, 9.99805, 39.2256, 21.6667, 31.6289, 17.969, 0, 0
67, 1800.00000, 35.8386, 11.8847, 35.4218, 22.3753, 29.8528, 16.435, 0, 0
68, 0.00000, 38.2697, 13.2014, 35.6129, 22.2996, 31.8571, 13.4517, 0, 0
68, 1800.00000, 36.1983, 13.2459, 35.6597, 18.7414, 32.9148, 15.1751, 0, 0
69, 0.00000, 31.6221, 12.4736, 31.2108, 21.0457, 27.2718, 16.0028, 0, 0
69, 1800.00000, 30.5154, 12.1829, 28.9156, 23.3374, 24.6266, 14.3927, 0, 0
70, 0.00000, 30.0759, 14.5469, 28.1378, 20.4519, 26.5357, 13.7779, 0, 0
70, 1800.00000, 31.0975, 14.5895, 29.6499, 19.146, 28.294, 14.2791, 0, 0
71, 0.00000, 26.5387, 14.156, 25.4164, 19.71, 23.7931, 14.5377, 0, 0
71, 1800.00000, 21.2512, 14.4717, 18.2263, 23.3161, 17.2679, 9.80675, 0, 0
72, 0.00000, 18.6982, 10.2799, 18.1039, 24.0517, 14.4617, 15.0205, 0, 0
72, 1800.00000, 13.1079, 8.91627, 13.0708, 23.9465, 10.0138, 16.2536, 0, 0
73, 0.00000, 10.7477, 14.8572, 9.93246, 24.4021, 8.84639, 14.8531, 0, 0
73, 1800.00000, 9.43148, 14.0485, 8.63185, 26.046, 7.38486, 14.3768, 0, 0
74, 0.00000, 11.5586, 13.4214, 10.277, 28.1222, 8.49381, 12.7765, 0, 0
74, 1800.00000, 11.2768, 13.5641, 9.89689, 28.5801, 8.20207, 12.138, 0, 0
75, 0.00000, 9.24057, 13.4807, 8.40465, 26.9722, 7.01005, 13.9438, 0, 0
75, 1800.00000, 8.51197, 14.4311, 7.8158, 25.4821, 6.79498, 14.6113, 0, 0
76, 0.00000, 10.7561, 15.6661, 9.17276, 27.3249, 8.28886, 11.4626, 0, 0
76, 1800.00000, 11.3392, 15.9107, 9.65893, 27.0519, 8.82015, 11.4961, 0, 0
77, 0.00000, 8.55559, 14.1418, 8.02753, 24.8557, 6.93208, 15.5342, 0, 0
77, 1800.00000, 10.6029, 9.71993, 10.9849, 25.1127, 8.2016, 19.9029, 0, 0
78, 0.00000, 12.9343, 12.3291, 11.6232, 28.9071, 9.16868, 12.9965, 0, 0
78, 1800.00000, 16.0458, 12.2877, 14.2411, 29.5802, 11.1603, 12.2879, 0, 0
79, 0.00000, 20.851, 14.1119, 17.1041, 31.2726, 14.3024, 8.58846, 0, 0
79, 1800.00000, 21.7873, 14.3371, 18.3894, 29.628, 15.6097, 10.3806, 0, 0
80, 0.00000, 25.5897, 14.4844, 21.9565, 30.0679, 18.2957, 11.6987, 0, 0
80, 1800.00000, 22.4681, 13.0801, 21.355, 32.4271, 15.2675, 18.8676, 0, 0
81, 0.00000, 20.9203, 19.7273, 19.5313, 31.0161, 16.7361, 21.048, 0, 0
81, 1800.00000, 21.0052, 22.3258, 20.7802, 27.7779, 19.1517, 24.4615, 0, 0
82, 0.00000, 15.981, 21.7112, 18.8997, 32.9143, 14.6525, 37.7909, 0, 0
82, 1800.00000, 10.8238, 33.0994, 11.39, 41.5181, 9.67926, 40.3365, 0, 0
83, 0.00000, 9.16143, 27.7061, 12.5784, 39.9455, 9.33939, 53.3949, 0, 0
83, 1800.00000, 5.25844, 67.4886, 6.78085, 59.7204, 6.82949, 74.2751, 0, 0
84, 0.00000, 8.42101, 41.7383, 8.44726, 56.0869, 6.54505, 49.1305, 0, 0
84, 1800.00000, 7.56535, 40.2316, 9.93448, 59.9519, 6.42459, 70.3717, 0, 0
85, 0.00000, 2.70246, 104.647, 5.98236, 85.323, 6.09145, 119.489, 0, 0
85, 1800.00000, 3.73726, 150.123, 5.90489, 89.4417, 8.44642, 127.094, 0, 0
86, 0.00000, 3.33768, 144.279, 6.36941, 58.9486, 9.30809, 107.199, 0, 0
86, 1800.00000, 4.76638, 43.852, 8.80831, 36.0925, 8.27643, 63.9024, 0, 0
87, 0.00000, 8.53191, 22.2174, 13.0002, 22.8653, 11.3426, 42.569, 0, 0
87, 1800.00000, 17.7291, 17.1985, 18.5939, 21.8178, 16.8966, 22.1149, 0, 0
88, 0.00000, 20.1723, 13.4919, 22.5556, 17.5871, 20.1363, 21.5541, 0, 0
88, 1800.00000, 24.6653, 8.97817, 26.1384, 18.2886, 21.7897, 17.1613, 0, 0
89, 0.00000, 35.446, 9.02823, 37.5928, 19.2306, 30.8167, 17.7918, 0, 0
89, 1800.00000, 43.1902, 7.31783, 45.2658, 22.7039, 33.6461, 18.3543, 0, 0
90, 0.00000, 41.5897, 9.372, 43.0114, 21.6116, 34.2857, 17.7164, 0, 0
90, 1800.00000, 43.0521, 7.37761, 46.5166, 22.4864, 34.3603, 20.3545, 0, 0
91, 0.00000, 44.213, 7.30637, 46.8499, 23.1729, 34.315, 19.4014, 0, 0
91, 1800.00000, 37.5069, 7.4037, 38.0326, 25.4089, 27.0896, 17.5129, 0, 0
92, 0.00000, 36.1871, 9.86007, 36.0558, 24.1119, 28.0958, 16.7863, 0, 0
92, 1800.00000, 34.067, 8.66409, 33.6115, 25.4839, 24.9219, 16.1529, 0, 0
93, 0.00000, 34.748, 13.2567, 30.747, 23.866, 27.6216, 11.0147, 0, 0
93, 1800.00000, 38.1007, 10.6554, 34.7445, 24.5426, 28.7169, 11.4594, 0, 0
94, 0.00000, 27.046, 13.099, 25.5399, 22.6346, 22.4659, 14.4067, 0, 0
94, 1800.00000, 21.2214, 10.9463, 20.349, 25.019, 16.2442, 15.1719, 0, 0
95, 0.00000, 16.1804, 15.7124, 14.2872, 25.7277, 12.9902, 13.1353, 0, 0
95, 1800.00000, 14.3868, 17.236, 12.24, 25.4703, 11.786, 11.9222, 0, 0
96, 0.00000, 11.7086, 18.4345, 10.5869, 21.5465, 10.6663, 14.684, 0, 0
96, 1800.00000, 11.1159, 18.9541, 10.2983, 20.0519, 10.5538, 15.6335, 0, 0
97, 0.00000, 10.8899, 16.0405, 8.78999, 29.4876, 8.01496, 8.83958, 0, 0
97, 1800.00000, 9.14598, 16.2286, 7.45664, 28.7357, 6.86385, 9.46422, 0, 0
98, 0.00000, 7.85489, 14.0662, 7.29521, 25.3873, 6.26558, 15.0638, 0, 0
98, 1800.00000, 7.91941, 14.5492, 7.1709, 25.9496, 6.2481, 13.9856, 0, 0
99, 0.00000, 10.6287, 15.2863, 8.86011, 28.8998, 7.84779, 10.1415, 0, 0
99, 1800.00000, 9.21485, 14.0392, 8.14336, 27.6731, 6.90544, 12.6617, 0, 0
100, 0.00000, 9.24567, 12.6916, 8.78419, 25.9247, 7.16938, 15.9299, 0, 0
100, 1800.00000, 9.7201, 14.9077, 8.56604, 26.7415, 7.53737, 12.794, 0, 0
101, 0.00000, 12.1675, 15.3903, 11.0117, 25.0485, 9.91587, 14.1694, 0, 0
101, 1800.00000, 10.14, 15.0743, 9.85925, 22.4361, 8.87143, 17.1348, 0, 0
102, 0.00000, 11.7785, 11.6909, 12.3438, 22.8456, 9.98783, 20.2359, 0, 0
102, 1800.00000, 20.3453, 14.7133, 17.018, 29.5237, 14.6885, 10.0565, 0, 0
103, 0.00000, 23.7999, 13.7561, 19.3957, 32.1443, 15.8983, 7.95675, 0, 0
103, 1800.00000, 28.134, 13.591, 24.2472, 29.6158, 19.9551, 11.2186, 0, 0
104, 0.00000, 26.6895, 16.4486, 21.4275, 31.2257, 19.1423, 9.14349, 0, 0
104, 1800.00000, 27.971, 16.3005, 22.6434, 31.6008, 19.8839, 9.61165, 0, 0
105, 0.00000, 24.1318, 19.3473, 20.7952, 27.0018, 20.05, 14.5859, 0, 0
105, 1800.00000, 15.34, 23.8363, 13.4325, 29.5018, 13.2494, 19.3084, 0, 0
106, 0.00000, 12.6709, 24.4542, 10.4585, 36.4971, 9.61773, 18.3425, 0, 0
106, 1800.00000, 18.171, 18.6883, 16.3858, 33.9789, 13.2525, 19.1906, 0, 0
107, 0.00000, 13.2975, 19.7156, 13.7808, 34.6781, 10.3825, 29.68, 0, 0
107, 1800.00000, 7.26328, 29.161, 8.78724, 46.0317, 6.06812, 51.1207, 0, 0
108, 0.00000, 7.72017, 28.3201, 9.42141, 46.0093, 6.38763, 51.5664, 0, 0
108, 1800.00000, 11.8852, 15.3701, 14.5873, 33.8431, 9.72056, 39.7052, 0, 0
109, 0.00000, 13.0241, 22.2441, 13.3408, 35.0018, 10.5701, 30.2107, 0, 0
109, 1800.00000, 12.0513, 26.9771, 10.9633, 37.4106, 9.70003, 26.3526, 0, 0
110, 0.00000, 11.0135, 24.8782, 12.1807, 30.668, 10.6188, 33.3975, 0, 0
110, 1800.00000, 11.4668, 17.3466, 15.2385, 21.8998, 12.8618, 34.6837, 0, 0
111, 0.00000, 13.2012, 24.9813, 15.5327, 11.0846, 17.3665, 24.1835, 0, 0
111, 1800.00000, 22.4831, 19.9061, 21.2488, 16.7357, 22.9303, 15.6842, 0, 0
112, 0.00000, 27.8754, 15.4278, 25.8407, 19.677, 25.1859, 13.4604, 0, 0
112, 1800.00000, 25.6899, 17.6514, 26.4265, 12.7345, 27.9729, 16.4581, 0, 0
113, 0.00000, 32.3462, 8.83429, 38.2383, 9.79856, 35.137, 17.7211, 0, 0
113, 1800.00000, 48.2792, 11.1046, 48.926, 15.5564, 45.3051, 14.0742, 0, 0
114, 0.00000, 53.0418, 13.2221, 49.5544, 17.0799, 48.3977, 11.5123, 0, 0
114, 1800.00000, 50.697, 13.8852, 48.7329, 15.7033, 48.3841, 12.7635, 0, 0
115, 0.00000, 47.9847, 8.32952, 49.8475, 17.0851, 42.3474, 15.0238, 0, 0
115, 1800.00000, 38.1217, 12.3408, 39.4645, 13.7586, 37.9743, 14.8247, 0, 0
116, 0.00000, 36.9327, 12.9845, 35.4899, 18.4315, 33.2242, 13.5083, 0, 0
116, 1800.00000, 41.647, 9.8588, 37.902, 23.742, 31.3723, 10.5318, 0, 0
117, 0.00000, 42.9206, 11.4946, 38.4912, 21.44, 34.6991, 9.84599, 0, 0
117, 1800.00000, 37.3361, 8.78412, 33.472, 23.432, 27.5514, 8.70711, 0, 0
118, 0.00000, 32.3892, 9.08926, 29.5113, 21.3786, 25.1865, 9.26059, 0, 0
118, 1800.00000, 35.5483, 10.6648, 29.2157, 23.6423, 26.5044, 4.512, 0, 0
119, 0.00000, 31.7918, 5.78047, 28.2929, 24.3243, 21.5333, 6.35357, 0, 0
119, 1800.00000, 26.2349, 7.29135, 24.3079, 21.2019, 19.8734, 9.15439, 0, 0
120, 0.00000, 20.438, 11.4217, 17.3551, 24.0876, 15.4387, 7.2263, 0, 0
120, 1800.00000, 17.2447, 17.2246, 13.6067, 21.8862, 14.6895, 6.87839, 0, 0
121, 0.00000, 11.2621, 11.6716, 9.96445, 23.756, 8.70248, 9.88846, 0, 0
121, 1800.00000, 8.31276, 14.068, 7.72335, 24.8767, 6.69677, 14.8875, 0, 0
122, 0.00000, 7.73552, 15.5515, 7.12697, 24.0551, 6.48044, 14.9545, 0, 0
122, 1800.00000, 8.44255, 15.9904, 7.17373, 27.0579, 6.57113, 11.404, 0, 0
123, 0.00000, 7.60739, 15.9096, 6.7126, 25.472, 6.15572, 13.1366, 0, 0
123, 1800.00000, 7.77783, 15.9821, 7.10987, 23.8919, 6.56507, 14.6947, 0, 0
124, 0.00000, 8.56148, 16.4755, 8.22165, 21.4131, 7.76404, 16.7222, 0, 0
124, 1800.00000, 8.33741, 14.4953, 7.56874, 25.9095, 6.5822, 14.0972, 0, 0
125, 0.00000, 9.01511, 14.8357, 9.02814, 21.5375, 8.0933, 18.2741, 0, 0
125, 1800.00000, 12.2175, 14.8548, 11.9186, 22.54, 10.6447, 17.2598, 0, 0
126, 0.00000, 13.3419, 15.6251, 12.4042, 23.6302, 11.3187, 15.3624, 0, 0
126, 1800.00000, 17.9345, 16.5244, 16.3842, 23.3667, 15.4212, 14.7917, 0, 0
127, 0.00000, 25.8021, 16.7646, 20.5272, 29.2124, 19.3057, 8.51012, 0, 0
127, 1800.00000, 25.6325, 16.8971, 21.1737, 27.3173, 20.0505, 10.4623, 0, 0
128, 0.00000, 21.1162, 14.8003, 18.2392, 28.2958, 15.7678, 11.9084, 0, 0
128, 1800.00000, 23.7936, 16.4377, 20.2456, 28.4554, 18.2072, 12.1991, 0, 0
129, 0.00000, 23.232, 18.1113, 20.8878, 25.9929, 19.5027, 15.8586, 0, 0
129, 1800.00000, 15.7809, 21.6506, 16.959, 20.1648, 16.765, 24.3719, 0, 0
130, 0.00000, 10.291, 30.962, 11.1385, 30.0339, 10.8885, 34.3472, 0, 0
130, 1800.00000, 8.87017, 22.1281, 11.7458, 38.6192, 8.09502, 49.6643, 0, 0
131, 0.00000, 11.699, 25.9996, 11.7691, 38.8426, 9.38939, 32.8245, 0, 0
131, 1800.00000, 12.3306, 23.7924, 11.6825, 33.4474, 10.2326, 25.3397, 0, 0
132, 0.00000, 5.80919, 55.6058, 5.4913, 33.5607, 7.4201, 42.7251, 0, 0
132, 1800.00000, 3.6347, 98.8764, 6.12657, 12.6654, 9.36457, 60.2054, 0, 0
133, 0.00000, 4.25309, 40.7319, 7.52939, 30.6869, 7.27346, 57.3629, 0, 0
133, 1800.00000, 0.950934, 149.838, 7.48, 25.3257, 8.42654, 85.8537, 0, 0
134, 0.00000, 3.25305, -0.236849, 11.009, 25.9424, 8.50097, 73.6793, 0, 0
134, 1800.00000, 10.7217, -0.413628, 17.3595, 23.1065, 10.8166, 47.0487, 0, 0
135, 0.00000, 12.5312, 7.57603, 16.021, 25.5905, 10.7358, 34.2868, 0, 0
135, 1800.00000, 21.1794, 6.86863, 22.2639, 27.8527, 14.5495, 21.4402, 0, 0
136, 0.00000, 28.0026, 12.0051, 28.5557, 17.9819, 25.6943, 16.1081, 0, 0
